# vsim -vopt work.HvlTop work.HdlTop -voptargs="+acc=npr" -assertdebug "+UVM_TESTNAME=Ahb8bitSingleReadTest" "+UVM_VERBOSITY=UVM_HIGH" "+define+" -l Ahb8bitSingleReadTest_27022025-163045/Ahb8bitSingleReadTest.log -sva -coverage -c -do "log -r /*; add wave -r /*; coverage save -onexit -assert -directive -cvg -codeAll Ahb8bitSingleReadTest_27022025-163045/Ahb8bitSingleReadTest_coverage.ucdb; run -all; exit" -wlf Ahb8bitSingleReadTest_27022025-163045/waveform.wlf 
# Start time: 16:30:46 on Feb 27,2025
# ** Note: (vsim-8009) Loading existing optimized design _opt
# //  Questa Sim
# //  Version 10.6c linux Jul 25 2017
# //
# //  Copyright 1991-2017 Mentor Graphics Corporation
# //  All Rights Reserved.
# //
# //  QuestaSim and its associated documentation contain trade
# //  secrets and commercial or financial information that are the property of
# //  Mentor Graphics Corporation and are privileged, confidential,
# //  and exempt from disclosure under the Freedom of Information Act,
# //  5 U.S.C. Section 552. Furthermore, this information
# //  is prohibited from disclosure under the Trade Secrets Act,
# //  18 U.S.C. Section 1905.
# //
# Loading sv_std.std
# Loading work.AhbSlaveDriverBFM(fast)
# Loading work.AhbSlaveMonitorBFM(fast)
# Loading work.AhbGlobalPackage(fast)
# Loading mtiUvm.uvm_pkg
# Loading work.AhbSlavePackage(fast)
# Loading work.AhbMasterDriverBFM(fast)
# Loading work.AhbMasterMonitorBFM(fast)
# Loading work.AhbMasterPackage(fast)
# Loading work.AhbEnvironmentPackage(fast)
# Loading work.AhbSlaveSequencePackage(fast)
# Loading work.AhbMasterSequencePackage(fast)
# Loading work.AhbVirtualSequencePackage(fast)
# Loading work.AhbBaseTestPackage(fast)
# Loading work.HvlTop(fast)
# Loading work.HdlTop(fast)
# Loading work.AhbInterface_sv_unit(fast)
# Loading work.AhbInterface(fast)
# Loading work.AhbMasterAgentBFM(fast)
# Loading work.AhbMasterDriverBFM_sv_unit(fast)
# Loading work.AhbMasterDriverBFM(fast)
# Loading work.AhbMasterMonitorBFM_sv_unit(fast)
# Loading work.AhbMasterMonitorBFM(fast)
# Loading work.AhbMasterCoverProperty_sv_unit(fast)
# Loading work.AhbMasterCoverProperty(fast)
# Loading work.AhbMasterAssertion_sv_unit(fast)
# Loading work.AhbMasterAssertion(fast)
# Loading work.AhbSlaveAgentBFM(fast)
# Loading work.AhbSlaveDriverBFM_sv_unit(fast)
# Loading work.AhbSlaveDriverBFM(fast)
# Loading work.AhbSlaveMonitorBFM_sv_unit(fast)
# Loading work.AhbSlaveMonitorBFM(fast)
# Loading work.AhbSlaveCoverProperty_sv_unit(fast)
# Loading work.AhbSlaveCoverProperty(fast)
# Loading work.AhbSlaveAssertion_sv_unit(fast)
# Loading work.AhbSlaveAssertion(fast)
# Loading mtiUvm.questa_uvm_pkg(fast)
# Loading /tools/mentor/questasim_10.6c/questasim/uvm-1.1d/linux/uvm_dpi.so
# log -r /*
#  add wave -r /*
#  coverage save -onexit -assert -directive -cvg -codeAll Ahb8bitSingleReadTest_27022025-163045/Ahb8bitSingleReadTest_coverage.ucdb
#  run -all
# ----------------------------------------------------------------
# UVM-1.1d
# (C) 2007-2013 Mentor Graphics Corporation
# (C) 2007-2013 Cadence Design Systems, Inc.
# (C) 2006-2013 Synopsys, Inc.
# (C) 2011-2013 Cypress Semiconductor Corp.
# ----------------------------------------------------------------
# 
#   ***********       IMPORTANT RELEASE NOTES         ************
# 
#   You are using a version of the UVM library that has been compiled
#   with `UVM_NO_DEPRECATED undefined.
#   See http://www.eda.org/svdb/view.php?id=3313 for more details.
# 
#   You are using a version of the UVM library that has been compiled
#   with `UVM_OBJECT_MUST_HAVE_CONSTRUCTOR undefined.
#   See http://www.eda.org/svdb/view.php?id=3770 for more details.
# 
#       (Specify +UVM_NO_RELNOTES to turn off this notice)
# 
# UVM_INFO verilog_src/questa_uvm_pkg-1.2/src/questa_uvm_pkg.sv(215) @ 0: reporter [Questa UVM] QUESTA_UVM-1.2.3
# UVM_INFO verilog_src/questa_uvm_pkg-1.2/src/questa_uvm_pkg.sv(217) @ 0: reporter [Questa UVM]  questa_uvm::init(+struct)
# UVM_INFO @ 0: reporter [RNTST] Running test Ahb8bitSingleReadTest...
# UVM_INFO ../../src/hdlTop/HdlTop.sv(14) @ 0: reporter [HDL_TOP] HDL_TOP
# UVM_INFO ../../src/hdlTop/masterAgentBFM/AhbMasterAgentBFM.sv(10) @ 0: reporter [ahb master agent bfm] AHB MASTER AGENT BFM
# UVM_INFO ../../src/hdlTop/masterAgentBFM/AhbMasterDriverBFM.sv(33) @ 0: reporter [AHB_MASTER_DRIVER_BFM] AHB_MASTER_DRIVER_BFM
# UVM_INFO ../../src/hdlTop/masterAgentBFM/AhbMasterMonitorBFM.sv(39) @ 0: reporter [AHB_MASTER_MONITOR_BFM] AHB MASTER MONITOR BFM
# UVM_INFO ../../src/hdlTop/masterAgentBFM/AhbMasterCoverProperty.sv(32) @ 0: reporter [AhbMasterCoverProperty] AhbMasterCoverProperty
# UVM_INFO ../../src/hdlTop/masterAgentBFM/AhbMasterAssertion.sv(29) @ 0: reporter [MASTER_ASSERTIONS] MASTER_ASSERTIONS
# UVM_INFO ../../src/hdlTop/slaveAgentBFM/AhbSlaveAgentBFM.sv(10) @ 0: reporter [ahb slave agent bfm] AHB SLAVE AGENT BFM
# UVM_INFO ../../src/hdlTop/slaveAgentBFM/AhbSlaveDriverBFM.sv(38) @ 0: reporter [AHB_SLAVE_DRIVER_BFM] AHB_SLAVE_DRIVER_BFM
# UVM_INFO ../../src/hdlTop/slaveAgentBFM/AhbSlaveMonitorBFM.sv(39) @ 0: reporter [AHB_SLAVE_MONITOR_BFM] AHB_SLAVE_MONITOR_BFM
# UVM_INFO ../../src/hdlTop/slaveAgentBFM/AhbSlaveCoverProperty.sv(32) @ 0: reporter [AhbSlaveCoverProperty] AhbSlaveCoverProperty
# UVM_INFO ../../src/hvlTop/tb/test/AhbBaseTest.sv(49) @ 0: uvm_test_top [Ahb8bitSingleReadTest] 
# AHB_MASTER_CONFIG[0]
# ----------------------------------------------------------
# Name                     Type                  Size  Value
# ----------------------------------------------------------
# AhbMasterAgentConfig[0]  AhbMasterAgentConfig  -     @497 
#   is_active              integral              1     1    
#   hasCoverage            integral              1     1    
# ----------------------------------------------------------
# 
# UVM_INFO ../../src/hvlTop/tb/test/AhbBaseTest.sv(61) @ 0: uvm_test_top [Ahb8bitSingleReadTest] 
# AHB_SLAVE_CONFIG[0]
# -------------------------------------------------------------
# Name                    Type                 Size  Value     
# -------------------------------------------------------------
# AhbSlaveAgentConfig[0]  AhbSlaveAgentConfig  -     @502      
#   is_active             string               10    UVM_ACTIVE
#   hasCoverage           integral             1     1         
#   maximumAddress        integral             32    'h0       
#   minimumAddress        integral             32    'h0       
# -------------------------------------------------------------
# 
# UVM_INFO ../../src/hvlTop/tb/test/AhbBaseTest.sv(65) @ 0: uvm_test_top [Ahb8bitSingleReadTest] 
# AHB_ENV_CONFIG
# --------------------------------------------------------
# Name                   Type                  Size  Value
# --------------------------------------------------------
# ahbEnvironmentConfig   AhbEnvironmentConfig  -     @496 
#   hasScoreboard        integral              1     1    
#   hasVirtualSequencer  integral              1     1    
#   noOfMasters          integral              32    'd1  
#   noOfSlaves           integral              32    'd1  
# --------------------------------------------------------
# 
# UVM_INFO @ 0: reporter [UVMTOP] UVM testbench topology:
# -----------------------------------------------------------------------
# Name                            Type                        Size  Value
# -----------------------------------------------------------------------
# uvm_test_top                    Ahb8bitSingleReadTest       -     @473 
#   ahbEnvironment                AhbEnvironment              -     @511 
#     ahbMasterAgent[0]           AhbMasterAgent              -     @520 
#       ahbMasterCoverage         AhbMasterCoverage           -     @893 
#         analysis_imp            uvm_analysis_imp            -     @900 
#       ahbMasterDriverProxy      AhbMasterDriverProxy        -     @855 
#         rsp_port                uvm_analysis_port           -     @870 
#         seq_item_port           uvm_seq_item_pull_port      -     @862 
#       ahbMasterMonitorProxy     AhbMasterMonitorProxy       -     @878 
#         ahbMasterAnalysisPort   uvm_analysis_port           -     @885 
#       ahbMasterSequencer        AhbMasterSequencer          -     @746 
#         rsp_export              uvm_analysis_export         -     @753 
#         seq_item_export         uvm_seq_item_pull_imp       -     @847 
#         arbitration_queue       array                       0     -    
#         lock_queue              array                       0     -    
#         num_last_reqs           integral                    32    'd1  
#         num_last_rsps           integral                    32    'd1  
#     ahbScoreboard               AhbScoreboard               -     @644 
#       ahbMasterAnalysisFifo[0]  uvm_tlm_analysis_fifo #(T)  -     @651 
#         analysis_export         uvm_analysis_imp            -     @690 
#         get_ap                  uvm_analysis_port           -     @682 
#         get_peek_export         uvm_get_peek_imp            -     @666 
#         put_ap                  uvm_analysis_port           -     @674 
#         put_export              uvm_put_imp                 -     @658 
#       ahbSlaveAnalysisFifo[0]   uvm_tlm_analysis_fifo #(T)  -     @698 
#         analysis_export         uvm_analysis_imp            -     @737 
#         get_ap                  uvm_analysis_port           -     @729 
#         get_peek_export         uvm_get_peek_imp            -     @713 
#         put_ap                  uvm_analysis_port           -     @721 
#         put_export              uvm_put_imp                 -     @705 
#     ahbSlaveAgent[0]            AhbSlaveAgent               -     @528 
#       ahbSlaveCoverage          AhbSlaveCoverage            -     @1063
#         analysis_imp            uvm_analysis_imp            -     @1070
#       ahbSlaveDriverProxy       AhbSlaveDriverProxy         -     @1025
#         rsp_port                uvm_analysis_port           -     @1040
#         seq_item_port           uvm_seq_item_pull_port      -     @1032
#       ahbSlaveMonitorProxy      AhbSlaveMonitorProxy        -     @1048
#         ahbSlaveAnalysisPort    uvm_analysis_port           -     @1055
#       ahbSlaveSequencer         AhbSlaveSequencer           -     @916 
#         rsp_export              uvm_analysis_export         -     @923 
#         seq_item_export         uvm_seq_item_pull_imp       -     @1017
#         arbitration_queue       array                       0     -    
#         lock_queue              array                       0     -    
#         num_last_reqs           integral                    32    'd1  
#         num_last_rsps           integral                    32    'd1  
#     ahbVirtualSequencer         AhbVirtualSequencer         -     @535 
#       rsp_export                uvm_analysis_export         -     @542 
#       seq_item_export           uvm_seq_item_pull_imp       -     @636 
#       arbitration_queue         array                       0     -    
#       lock_queue                array                       0     -    
#       num_last_reqs             integral                    32    'd1  
#       num_last_rsps             integral                    32    'd1  
# -----------------------------------------------------------------------
# 
# UVM_INFO verilog_src/questa_uvm_pkg-1.2/src/questa_uvm_pkg.sv(277) @ 0: reporter [Questa UVM] End Of Elaboration
# UVM_INFO ../../src/hvlTop/tb/test/Ahb8bitSingleReadTest.sv(22) @ 0: uvm_test_top [Ahb8bitSingleReadTest] Ahb8bitSingleReadTest
# UVM_INFO ../../src/hvlTop/slaveAgent/AhbSlaveDriverProxy.sv(48) @ 0: uvm_test_top.ahbEnvironment.ahbSlaveAgent[0].ahbSlaveDriverProxy [AhbSlaveDriverProxy]  BEFORERESET 
#  
# UVM_INFO ../../src/hvlTop/masterAgent/AhbMasterMonitorProxy.sv(41) @ 0: uvm_test_top.ahbEnvironment.ahbMasterAgent[0].ahbMasterMonitorProxy [AhbMasterMonitorProxy] Inside the master_monitor_proxy
# UVM_INFO ../../src/hdlTop/masterAgentBFM/AhbMasterDriverBFM.sv(38) @ 15: reporter [AHB_MASTER_DRIVER_BFM] SYSTEM RESET DETECTED
# UVM_INFO ../../src/hdlTop/masterAgentBFM/AhbMasterMonitorBFM.sv(44) @ 15: reporter [AHB_MASTER_MONITOR_BFM] system reset detected
# UVM_INFO ../../src/hdlTop/slaveAgentBFM/AhbSlaveDriverBFM.sv(43) @ 15: reporter [AHB_SLAVE_DRIVER_BFM] SYSTEM RESET DETECTED
# UVM_INFO ../../src/hdlTop/slaveAgentBFM/AhbSlaveMonitorBFM.sv(44) @ 15: reporter [AHB_SLAVE_MONITOR_BFM] SYSTEM_RESET_DETECTED
# UVM_INFO ../../src/hdlTop/masterAgentBFM/AhbMasterDriverBFM.sv(41) @ 30: reporter [AHB_MASTER_DRIVER_BFM] SYSTEM RESET DEACTIVATED
# UVM_INFO ../../src/hdlTop/masterAgentBFM/AhbMasterMonitorBFM.sv(47) @ 30: reporter [AHB_MASTER_MONITOR_BFM] system reset deactivated
# UVM_INFO ../../src/hdlTop/slaveAgentBFM/AhbSlaveDriverBFM.sv(46) @ 30: reporter [AHB_SLAVE_DRIVER_BFM] SYSTEM RESET DEACTIVATED
# UVM_INFO ../../src/hdlTop/slaveAgentBFM/AhbSlaveMonitorBFM.sv(47) @ 30: reporter [AHB_SLAVE_MONITOR_BFM] SYSTEM_RESET_DEACTIVATED
# ---------------------------------------------------------
# Name                Type                 Size  Value     
# ---------------------------------------------------------
# req                 AhbSlaveTransaction  -     @1124     
#   haddr             integral             32    'h0       
#   hselx             integral             1     'b0       
#   hburst            string               0     ""        
#   hmastlock         integral             1     'h0       
#   hprot             string               0     ""        
#   hsize             string               0     ""        
#   hnonsec           integral             1     'h0       
#   hexcl             integral             1     'h0       
#   hmaster           integral             1     'd0       
#   htrans            string               0     ""        
#   hwrite            string               4     READ      
#   hreadyout         integral             1     'h1       
#   hresp             string               0     ""        
#   hexokay           integral             1     'h0       
#   hready            integral             1     'h0       
#   choosePacketData  integral             1     'd0       
#   hrdata[0]         integral             32    'h776127dd
#   hrdata[1]         integral             32    'h7dbb77ea
#   hrdata[2]         integral             32    'h6af64121
#   hrdata[3]         integral             32    'h407dabdc
#   hrdata[4]         integral             32    'h582bfe9b
#   hrdata[5]         integral             32    'ha5ebed89
#   hrdata[6]         integral             32    'h43d37eec
#   hrdata[7]         integral             32    'h8262250a
#   hrdata[8]         integral             32    'h208af012
#   hrdata[9]         integral             32    'h4eecb497
#   hrdata[10]        integral             32    'h9b852c02
#   hrdata[11]        integral             32    'hf54c5658
#   hrdata[12]        integral             32    'hf50b17d0
#   hrdata[13]        integral             32    'h20543d59
#   hrdata[14]        integral             32    'h67aad40b
#   hrdata[15]        integral             32    'h73b79283
# ---------------------------------------------------------
# UVM_INFO ../../src/hvlTop/masterAgent/masterSequences/AhbMaster8bitSingleReadSequence.sv(23) @ 30: uvm_test_top.ahbEnvironment.ahbMasterAgent[0].ahbMasterSequencer@@ahbMaster8bitSingleReadSequence [AHB] req is of type: AhbMasterTransaction
# UVM_INFO ../../src/hvlTop/slaveAgent/AhbSlaveSequenceItemConverter.sv(65) @ 30: reporter [ahbSlaveSequeceItemconverterClass] After randomizing noofwaitstate = 00000000000000000000000000000000
# UVM_INFO ../../src/hvlTop/slaveAgent/AhbSlaveSequenceItemConverter.sv(95) @ 30: reporter [ahbSlaveSequeceItemconverterClass] -------------------------------------------------------------
# UVM_INFO ../../src/hdlTop/slaveAgentBFM/AhbSlaveDriverBFM.sv(52) @ 30: reporter [AHB_SLAVE_DRIVER_BFM] DRIVE TO BFM TASK
# UVM_INFO ../../src/hvlTop/masterAgent/AhbMasterDriverProxy.sv(58) @ 30: uvm_test_top.ahbEnvironment.ahbMasterAgent[0].ahbMasterDriverProxy [AhbMasterDriverProxy] REQ-MASTERTX 
#  -----------------------------------------------------------------------------------
# Name                      Type                  Size  Value                        
# -----------------------------------------------------------------------------------
# req                       AhbMasterTransaction  -     @1120                        
#   haddr                   integral              32    'he6771d5c                   
#   hselx                   integral              1     'b1                          
#   hburst                  string                6     SINGLE                       
#   hmastlock               integral              1     'h1                          
#   hprot                   string                29    PRIVILEGED_SECURE_INSTRUCTION
#   hsize                   string                4     BYTE                         
#   hnonsec                 integral              1     'h0                          
#   hexcl                   integral              1     'h1                          
#   hmaster                 integral              1     1                            
#   htrans                  string                6     NONSEQ                       
#   hwrite                  string                4     READ                         
#   hreadyout               integral              1     'h0                          
#   hresp                   string                0     ""                           
#   hexokay                 integral              1     'h1                          
#   hready                  integral              1     'h0                          
#   noOfwaitStatesDetected  integral              32    'h0                          
#   hwdata[0]               integral              32    'h717863db                   
#   hwstrb[0]               integral              4     'b10                         
# -----------------------------------------------------------------------------------
# 
# UVM_INFO ../../src/hdlTop/masterAgentBFM/AhbMasterDriverBFM.sv(47) @ 30: reporter [AHB_MASTER_DRIVER_BFM] DRIVE TO BFM TASK
# UVM_INFO ../../src/hdlTop/masterAgentBFM/AhbMasterDriverBFM.sv(58) @ 30: reporter [INSIDESINGLETRANSFER] BFM
# UVM_INFO ../../src/hdlTop/masterAgentBFM/AhbMasterDriverBFM.sv(61) @ 50: reporter [AHB_MASTER_DRIVER_BFM] DRIVING THE Single Transfer
# &&&&values inside master monitor proxy '{haddr:x, hselx:x, hburst:x, hmastlock:x, hprot:x, hsize:x, hnonsec:x, hexcl:x, hmaster:x, htrans:IDLE, hwdata:'{x, x, x, x, x, x, x, x, x, x, x, x, x, x, x, x, x}, hwstrb:'{0, 0, 0, 0, 0, 0, 0, 0, 0, 0, 0, 0, 0, 0, 0, 0, x}, hwrite:READ, hrdata:'{0, 0, 0, 0, 0, 0, 0, 0, 0, 0, 0, 0, 0, 0, 0, 0, x}, hreadyout:x, hresp:x, hexokay:x, hready:x, noOfWaitStates:0, busyControl:0}&&&
# UVM_INFO ../../src/hvlTop/masterAgent/AhbMasterMonitorProxy.sv(58) @ 50: uvm_test_top.ahbEnvironment.ahbMasterAgent[0].ahbMasterMonitorProxy [AhbMasterMonitorProxy] Sending packet via analysis_port: , 
#  -----------------------------------------------------------
# Name                      Type                  Size  Value
# -----------------------------------------------------------
# ahbMasterPacket           AhbMasterTransaction  -     @1200
#   haddr                   integral              32    'h0  
#   hselx                   integral              1     'b0  
#   hburst                  string                0     ""   
#   hmastlock               integral              1     'h0  
#   hprot                   string                0     ""   
#   hsize                   string                0     ""   
#   hnonsec                 integral              1     'h0  
#   hexcl                   integral              1     'h0  
#   hmaster                 integral              1     'd0  
#   htrans                  string                4     IDLE 
#   hwrite                  string                4     READ 
#   hreadyout               integral              1     'h0  
#   hresp                   string                0     ""   
#   hexokay                 integral              1     'h0  
#   hready                  integral              1     'h0  
#   noOfwaitStatesDetected  integral              32    'h0  
# -----------------------------------------------------------
# 
# UVM_INFO ../../src/hvlTop/masterAgent/AhbMasterCoverage.sv(180) @ 50: uvm_test_top.ahbEnvironment.ahbMasterAgent[0].ahbMasterCoverage [AhbMasterCoverage] Before calling SAMPLE METHOD
# UVM_INFO ../../src/hvlTop/masterAgent/AhbMasterCoverage.sv(182) @ 50: uvm_test_top.ahbEnvironment.ahbMasterAgent[0].ahbMasterCoverage [AhbMasterCoverage] After calling SAMPLE METHOD
# &&&&values inside monitor proxy '{haddr:x, hselx:x, hburst:x, hmastlock:x, hprot:x, hsize:x, hnonsec:x, hexcl:x, hmaster:x, htrans:IDLE, hwdata:'{x, x, x, x, x, x, x, x, x, x, x, x, x, x, x, x, x}, hwstrb:'{x, x, x, x, x, x, x, x, x, x, x, x, x, x, x, x, x}, hwrite:READ, hrdata:'{0, 0, 0, 0, 0, 0, 0, 0, 0, 0, 0, 0, 0, 0, 0, 0, x}, hreadyout:x, hresp:x, hexokay:x, hready:x, noOfWaitStates:0, busyControl:0}&&&
# UVM_INFO ../../src/hvlTop/slaveAgent/AhbSlaveSequenceItemConverter.sv(149) @ 50: reporter [ahbSlaveSequeceItemconverterClass] After randomizing noofwaitstate = 00000000000000000000000000000000
# UVM_INFO ../../src/hvlTop/slaveAgent/AhbSlaveSequenceItemConverter.sv(177) @ 50: reporter [ahbSlaveSequeceItemconverterClass] -------------------------------------------------------------
# UVM_INFO ../../src/hvlTop/slaveAgent/AhbSlaveMonitorProxy.sv(57) @ 50: uvm_test_top.ahbEnvironment.ahbSlaveAgent[0].ahbSlaveMonitorProxy [AhbSlaveMonitorProxy] Sending packet via analysis_port: , 
#  ----------------------------------------------------
# Name                Type                 Size  Value
# ----------------------------------------------------
# slave Packet        AhbSlaveTransaction  -     @1204
#   haddr             integral             32    'h0  
#   hselx             integral             1     'b0  
#   hburst            string               0     ""   
#   hmastlock         integral             1     'h0  
#   hprot             string               0     ""   
#   hsize             string               0     ""   
#   hnonsec           integral             1     'h0  
#   hexcl             integral             1     'h0  
#   hmaster           integral             1     'd0  
#   htrans            string               4     IDLE 
#   hwrite            string               4     READ 
#   hreadyout         integral             1     'h0  
#   hresp             string               0     ""   
#   hexokay           integral             1     'h0  
#   hready            integral             1     'h0  
#   choosePacketData  integral             1     'd0  
# ----------------------------------------------------
# 
# UVM_INFO ../../src/hvlTop/slaveAgent/AhbSlaveCoverage.sv(61) @ 50: uvm_test_top.ahbEnvironment.ahbSlaveAgent[0].ahbSlaveCoverage [AhbSlaveCoverage] AHB SLAVE COVERAGE
# UVM_INFO ../../src/hvlTop/environment/AhbScoreboard.sv(78) @ 50: uvm_test_top.ahbEnvironment.ahbScoreboard [AhbScoreboard] after calling master's analysis fifo get method
# UVM_INFO ../../src/hvlTop/environment/AhbScoreboard.sv(88) @ 50: uvm_test_top.ahbEnvironment.ahbScoreboard [AhbScoreboard] after calling slave's analysis fifo get method
# UVM_INFO ../../src/hdlTop/slaveAgentBFM/AhbSlaveDriverBFM.sv(60) @ 50: reporter [AHB_SLAVE_DRIVER_BFM] AFTERHSELASSERTED HTRANSFER = 2
# UVM_INFO ../../src/hdlTop/slaveAgentBFM/AhbSlaveDriverBFM.sv(71) @ 50: reporter [AHB_SLAVE_DRIVER_BFM] DRIVING THE Single Transfer
# &&&&values inside master monitor proxy '{haddr:3866565980, hselx:1, hburst:SINGLE, hmastlock:1, hprot:PRIVILEGED_SECURE_INSTRUCTION, hsize:BYTE, hnonsec:x, hexcl:x, hmaster:x, htrans:NONSEQ, hwdata:'{x, x, x, x, x, x, x, x, x, x, x, x, x, x, x, x, x}, hwstrb:'{0, 0, 0, 0, 0, 0, 0, 0, 0, 0, 0, 0, 0, 0, 0, 0, 2}, hwrite:READ, hrdata:'{0, 0, 0, 0, 0, 0, 0, 0, 0, 0, 0, 0, 0, 0, 0, 0, x}, hreadyout:x, hresp:x, hexokay:x, hready:x, noOfWaitStates:0, busyControl:0}&&&
# UVM_INFO ../../src/hvlTop/masterAgent/AhbMasterMonitorProxy.sv(58) @ 70: uvm_test_top.ahbEnvironment.ahbMasterAgent[0].ahbMasterMonitorProxy [AhbMasterMonitorProxy] Sending packet via analysis_port: , 
#  -----------------------------------------------------------------------------------
# Name                      Type                  Size  Value                        
# -----------------------------------------------------------------------------------
# ahbMasterPacket           AhbMasterTransaction  -     @1208                        
#   haddr                   integral              32    'he6771d5c                   
#   hselx                   integral              1     'b1                          
#   hburst                  string                6     SINGLE                       
#   hmastlock               integral              1     'h1                          
#   hprot                   string                29    PRIVILEGED_SECURE_INSTRUCTION
#   hsize                   string                4     BYTE                         
#   hnonsec                 integral              1     'h0                          
#   hexcl                   integral              1     'h0                          
#   hmaster                 integral              1     'd0                          
#   htrans                  string                6     NONSEQ                       
#   hwrite                  string                4     READ                         
#   hreadyout               integral              1     'h0                          
#   hresp                   string                0     ""                           
#   hexokay                 integral              1     'h0                          
#   hready                  integral              1     'h0                          
#   noOfwaitStatesDetected  integral              32    'h0                          
# -----------------------------------------------------------------------------------
# 
# UVM_INFO ../../src/hvlTop/masterAgent/AhbMasterCoverage.sv(180) @ 70: uvm_test_top.ahbEnvironment.ahbMasterAgent[0].ahbMasterCoverage [AhbMasterCoverage] Before calling SAMPLE METHOD
# UVM_INFO ../../src/hvlTop/masterAgent/AhbMasterCoverage.sv(182) @ 70: uvm_test_top.ahbEnvironment.ahbMasterAgent[0].ahbMasterCoverage [AhbMasterCoverage] After calling SAMPLE METHOD
# UVM_INFO ../../src/hdlTop/slaveAgentBFM/AhbSlaveDriverBFM.sv(161) @ 70: reporter [AHB_SLAVE_DRIVER_BFM] Bus is now out of wait cycles
# &&&&values inside monitor proxy '{haddr:3866565980, hselx:1, hburst:SINGLE, hmastlock:x, hprot:PRIVILEGED_SECURE_INSTRUCTION, hsize:BYTE, hnonsec:0, hexcl:x, hmaster:x, htrans:NONSEQ, hwdata:'{x, x, x, x, x, x, x, x, x, x, x, x, x, x, x, x, x}, hwstrb:'{x, x, x, x, x, x, x, x, x, x, x, x, x, x, x, x, x}, hwrite:READ, hrdata:'{0, 0, 0, 0, 0, 0, 0, 0, 0, 0, 0, 0, 0, 0, 0, 0, x}, hreadyout:x, hresp:x, hexokay:x, hready:x, noOfWaitStates:0, busyControl:0}&&&
# UVM_INFO ../../src/hvlTop/slaveAgent/AhbSlaveSequenceItemConverter.sv(149) @ 70: reporter [ahbSlaveSequeceItemconverterClass] After randomizing noofwaitstate = 00000000000000000000000000000000
# UVM_INFO ../../src/hvlTop/slaveAgent/AhbSlaveSequenceItemConverter.sv(177) @ 70: reporter [ahbSlaveSequeceItemconverterClass] -------------------------------------------------------------
# UVM_INFO ../../src/hvlTop/slaveAgent/AhbSlaveMonitorProxy.sv(57) @ 70: uvm_test_top.ahbEnvironment.ahbSlaveAgent[0].ahbSlaveMonitorProxy [AhbSlaveMonitorProxy] Sending packet via analysis_port: , 
#  ----------------------------------------------------------------------------
# Name                Type                 Size  Value                        
# ----------------------------------------------------------------------------
# slave Packet        AhbSlaveTransaction  -     @1212                        
#   haddr             integral             32    'he6771d5c                   
#   hselx             integral             1     'b1                          
#   hburst            string               6     SINGLE                       
#   hmastlock         integral             1     'h0                          
#   hprot             string               29    PRIVILEGED_SECURE_INSTRUCTION
#   hsize             string               4     BYTE                         
#   hnonsec           integral             1     'h0                          
#   hexcl             integral             1     'h0                          
#   hmaster           integral             1     'd0                          
#   htrans            string               6     NONSEQ                       
#   hwrite            string               4     READ                         
#   hreadyout         integral             1     'h0                          
#   hresp             string               0     ""                           
#   hexokay           integral             1     'h0                          
#   hready            integral             1     'h0                          
#   choosePacketData  integral             1     'd0                          
# ----------------------------------------------------------------------------
# 
# UVM_INFO ../../src/hvlTop/slaveAgent/AhbSlaveCoverage.sv(61) @ 70: uvm_test_top.ahbEnvironment.ahbSlaveAgent[0].ahbSlaveCoverage [AhbSlaveCoverage] AHB SLAVE COVERAGE
# UVM_INFO ../../src/hvlTop/environment/AhbScoreboard.sv(78) @ 70: uvm_test_top.ahbEnvironment.ahbScoreboard [AhbScoreboard] after calling master's analysis fifo get method
# UVM_INFO ../../src/hvlTop/environment/AhbScoreboard.sv(88) @ 70: uvm_test_top.ahbEnvironment.ahbScoreboard [AhbScoreboard] after calling slave's analysis fifo get method
# ** Info: Hwstrb valid
#    Time: 70 ns Started: 70 ns  Scope: HdlTop.ahbMasterAgentBFM.ahbMasterMonitorBFM.ahb_assert File: ../../src/hdlTop/masterAgentBFM/AhbMasterAssertion.sv Line: 198
# UVM_INFO ../../src/hdlTop/masterAgentBFM/AhbMasterDriverBFM.sv(86) @ 90: reporter [AHB_MASTER_DRIVER_BFM] Read Data: x from Address: e6771d5c
# &&&&values inside master monitor proxy '{haddr:3866565980, hselx:1, hburst:SINGLE, hmastlock:1, hprot:PRIVILEGED_SECURE_INSTRUCTION, hsize:BYTE, hnonsec:x, hexcl:x, hmaster:x, htrans:NONSEQ, hwdata:'{x, x, x, x, x, x, x, x, x, x, x, x, x, x, x, x, x}, hwstrb:'{0, 0, 0, 0, 0, 0, 0, 0, 0, 0, 0, 0, 0, 0, 0, 0, 2}, hwrite:READ, hrdata:'{0, 0, 0, 0, 0, 0, 0, 0, 0, 0, 0, 0, 0, 0, 0, 0, x}, hreadyout:x, hresp:x, hexokay:x, hready:1, noOfWaitStates:0, busyControl:0}&&&
# UVM_INFO ../../src/hvlTop/masterAgent/AhbMasterMonitorProxy.sv(58) @ 90: uvm_test_top.ahbEnvironment.ahbMasterAgent[0].ahbMasterMonitorProxy [AhbMasterMonitorProxy] Sending packet via analysis_port: , 
#  -----------------------------------------------------------------------------------
# Name                      Type                  Size  Value                        
# -----------------------------------------------------------------------------------
# ahbMasterPacket           AhbMasterTransaction  -     @1216                        
#   haddr                   integral              32    'he6771d5c                   
#   hselx                   integral              1     'b1                          
#   hburst                  string                6     SINGLE                       
#   hmastlock               integral              1     'h1                          
#   hprot                   string                29    PRIVILEGED_SECURE_INSTRUCTION
#   hsize                   string                4     BYTE                         
#   hnonsec                 integral              1     'h0                          
#   hexcl                   integral              1     'h0                          
#   hmaster                 integral              1     'd0                          
#   htrans                  string                6     NONSEQ                       
#   hwrite                  string                4     READ                         
#   hreadyout               integral              1     'h0                          
#   hresp                   string                0     ""                           
#   hexokay                 integral              1     'h0                          
#   hready                  integral              1     'h1                          
#   noOfwaitStatesDetected  integral              32    'h0                          
# -----------------------------------------------------------------------------------
# 
# UVM_INFO ../../src/hvlTop/masterAgent/AhbMasterCoverage.sv(180) @ 90: uvm_test_top.ahbEnvironment.ahbMasterAgent[0].ahbMasterCoverage [AhbMasterCoverage] Before calling SAMPLE METHOD
# UVM_INFO ../../src/hvlTop/masterAgent/AhbMasterCoverage.sv(182) @ 90: uvm_test_top.ahbEnvironment.ahbMasterAgent[0].ahbMasterCoverage [AhbMasterCoverage] After calling SAMPLE METHOD
# UVM_INFO ../../src/hvlTop/slaveAgent/AhbSlaveSequenceItemConverter.sv(149) @ 90: reporter [ahbSlaveSequeceItemconverterClass] After randomizing noofwaitstate = 00000000000000000000000000000000
# UVM_INFO ../../src/hvlTop/slaveAgent/AhbSlaveSequenceItemConverter.sv(177) @ 90: reporter [ahbSlaveSequeceItemconverterClass] -------------------------------------------------------------
# &&&&values inside monitor proxy '{haddr:3866565980, hselx:1, hburst:SINGLE, hmastlock:x, hprot:PRIVILEGED_SECURE_INSTRUCTION, hsize:BYTE, hnonsec:0, hexcl:x, hmaster:x, htrans:NONSEQ, hwdata:'{x, x, x, x, x, x, x, x, x, x, x, x, x, x, x, x, x}, hwstrb:'{x, x, x, x, x, x, x, x, x, x, x, x, x, x, x, x, x}, hwrite:READ, hrdata:'{0, 0, 0, 0, 0, 0, 0, 0, 0, 0, 0, 0, 0, 0, 0, 0, x}, hreadyout:1, hresp:x, hexokay:x, hready:x, noOfWaitStates:0, busyControl:0}&&&
# UVM_INFO ../../src/hvlTop/slaveAgent/AhbSlaveSequenceItemConverter.sv(149) @ 90: reporter [ahbSlaveSequeceItemconverterClass] After randomizing noofwaitstate = 00000000000000000000000000000000
# UVM_INFO ../../src/hvlTop/slaveAgent/AhbSlaveSequenceItemConverter.sv(177) @ 90: reporter [ahbSlaveSequeceItemconverterClass] -------------------------------------------------------------
# UVM_INFO ../../src/hvlTop/slaveAgent/AhbSlaveMonitorProxy.sv(57) @ 90: uvm_test_top.ahbEnvironment.ahbSlaveAgent[0].ahbSlaveMonitorProxy [AhbSlaveMonitorProxy] Sending packet via analysis_port: , 
#  ----------------------------------------------------------------------------
# Name                Type                 Size  Value                        
# ----------------------------------------------------------------------------
# slave Packet        AhbSlaveTransaction  -     @1220                        
#   haddr             integral             32    'he6771d5c                   
#   hselx             integral             1     'b1                          
#   hburst            string               6     SINGLE                       
#   hmastlock         integral             1     'h0                          
#   hprot             string               29    PRIVILEGED_SECURE_INSTRUCTION
#   hsize             string               4     BYTE                         
#   hnonsec           integral             1     'h0                          
#   hexcl             integral             1     'h0                          
#   hmaster           integral             1     'd0                          
#   htrans            string               6     NONSEQ                       
#   hwrite            string               4     READ                         
#   hreadyout         integral             1     'h1                          
#   hresp             string               0     ""                           
#   hexokay           integral             1     'h0                          
#   hready            integral             1     'h0                          
#   choosePacketData  integral             1     'd0                          
# ----------------------------------------------------------------------------
# 
# UVM_INFO ../../src/hvlTop/slaveAgent/AhbSlaveCoverage.sv(61) @ 90: uvm_test_top.ahbEnvironment.ahbSlaveAgent[0].ahbSlaveCoverage [AhbSlaveCoverage] AHB SLAVE COVERAGE
# UVM_INFO ../../src/hvlTop/environment/AhbScoreboard.sv(78) @ 90: uvm_test_top.ahbEnvironment.ahbScoreboard [AhbScoreboard] after calling master's analysis fifo get method
# UVM_INFO ../../src/hvlTop/environment/AhbScoreboard.sv(88) @ 90: uvm_test_top.ahbEnvironment.ahbScoreboard [AhbScoreboard] after calling slave's analysis fifo get method
# UVM_INFO ../../src/hvlTop/environment/AhbScoreboard.sv(172) @ 90: uvm_test_top.ahbEnvironment.ahbScoreboard [AhbScoreboard] --
# -----------------------------------------------SCOREBOARD COMPARISIONS--------------------------------------------------
# UVM_INFO ../../src/hvlTop/environment/AhbScoreboard.sv(190) @ 90: uvm_test_top.ahbEnvironment.ahbScoreboard [AhbScoreboard] ahb HADDR from master and slave is equal
# UVM_INFO ../../src/hvlTop/environment/AhbScoreboard.sv(192) @ 90: uvm_test_top.ahbEnvironment.ahbScoreboard [SB HADDR MATCH] Master HADDR = 'he6771d5c and Slave HADDR = 'he6771d5c
# UVM_INFO ../../src/hvlTop/environment/AhbScoreboard.sv(204) @ 90: uvm_test_top.ahbEnvironment.ahbScoreboard [AhbScoreboard] ahb HWRITE from master and slave is equal
# UVM_INFO ../../src/hvlTop/environment/AhbScoreboard.sv(206) @ 90: uvm_test_top.ahbEnvironment.ahbScoreboard [SB HWRITE MATCH] Master HWRITE = 'h0 and Slave hwrite = 'h0
# UVM_INFO ../../src/hvlTop/environment/AhbScoreboard.sv(219) @ 90: uvm_test_top.ahbEnvironment.ahbScoreboard [AhbScoreboard] ahb HRDATA from master and slave is equal
# UVM_INFO ../../src/hvlTop/environment/AhbScoreboard.sv(221) @ 90: uvm_test_top.ahbEnvironment.ahbScoreboard [SB HRDATA MATCHED] Master HRDATA =  and Slave HRDATA = 
# UVM_INFO ../../src/hvlTop/environment/AhbScoreboard.sv(244) @ 90: uvm_test_top.ahbEnvironment.ahbScoreboard [AhbScoreboard] --
# -----------------------------------------------END OF SCOREBOARD COMPARISIONS---------------------------------------
# ---------------------------------------------------------
# Name                Type                 Size  Value     
# ---------------------------------------------------------
# req                 AhbSlaveTransaction  -     @1225     
#   haddr             integral             32    'h0       
#   hselx             integral             1     'b0       
#   hburst            string               0     ""        
#   hmastlock         integral             1     'h0       
#   hprot             string               0     ""        
#   hsize             string               0     ""        
#   hnonsec           integral             1     'h0       
#   hexcl             integral             1     'h0       
#   hmaster           integral             1     'd0       
#   htrans            string               0     ""        
#   hwrite            string               4     READ      
#   hreadyout         integral             1     'h1       
#   hresp             string               0     ""        
#   hexokay           integral             1     'h0       
#   hready            integral             1     'h0       
#   choosePacketData  integral             1     'd0       
#   hrdata[0]         integral             32    'hc1622e96
#   hrdata[1]         integral             32    'h27d5be31
#   hrdata[2]         integral             32    'h17d60edc
#   hrdata[3]         integral             32    'hd7a599b 
#   hrdata[4]         integral             32    'hdb252727
#   hrdata[5]         integral             32    'hdf6ea771
#   hrdata[6]         integral             32    'h541a54de
#   hrdata[7]         integral             32    'h644a9804
#   hrdata[8]         integral             32    'hcbdcd7e9
#   hrdata[9]         integral             32    'h1633c6f3
#   hrdata[10]        integral             32    'h48f744a3
#   hrdata[11]        integral             32    'h141c7b98
#   hrdata[12]        integral             32    'h158d177a
#   hrdata[13]        integral             32    'h8c1be344
#   hrdata[14]        integral             32    'h28844f75
#   hrdata[15]        integral             32    'h24c37d0 
# ---------------------------------------------------------
# UVM_INFO ../../src/hvlTop/slaveAgent/AhbSlaveSequenceItemConverter.sv(65) @ 90: reporter [ahbSlaveSequeceItemconverterClass] After randomizing noofwaitstate = 00000000000000000000000000000000
# UVM_INFO ../../src/hvlTop/slaveAgent/AhbSlaveSequenceItemConverter.sv(95) @ 90: reporter [ahbSlaveSequeceItemconverterClass] -------------------------------------------------------------
# UVM_INFO ../../src/hdlTop/slaveAgentBFM/AhbSlaveDriverBFM.sv(52) @ 90: reporter [AHB_SLAVE_DRIVER_BFM] DRIVE TO BFM TASK
# UVM_INFO ../../src/hdlTop/slaveAgentBFM/AhbSlaveDriverBFM.sv(60) @ 90: reporter [AHB_SLAVE_DRIVER_BFM] AFTERHSELASSERTED HTRANSFER = 2
# UVM_INFO ../../src/hdlTop/slaveAgentBFM/AhbSlaveDriverBFM.sv(71) @ 90: reporter [AHB_SLAVE_DRIVER_BFM] DRIVING THE Single Transfer
# ** Info: HMASTLOCK is asserted during a locked transfer
#    Time: 90 ns Started: 90 ns  Scope: HdlTop.ahbMasterAgentBFM.ahbMasterMonitorBFM.ahb_assert File: ../../src/hdlTop/masterAgentBFM/AhbMasterAssertion.sv Line: 104
# ** Info: HSIZE matches the data width supported by the slave!
#    Time: 90 ns Started: 90 ns  Scope: HdlTop.ahbMasterAgentBFM.ahbMasterMonitorBFM.ahb_assert File: ../../src/hdlTop/masterAgentBFM/AhbMasterAssertion.sv Line: 180
# ** Info: Valid burst type!
#    Time: 90 ns Started: 90 ns  Scope: HdlTop.ahbMasterAgentBFM.ahbMasterMonitorBFM.ahb_assert File: ../../src/hdlTop/masterAgentBFM/AhbMasterAssertion.sv Line: 189
# ** Info: Hwstrb valid
#    Time: 90 ns Started: 90 ns  Scope: HdlTop.ahbMasterAgentBFM.ahbMasterMonitorBFM.ahb_assert File: ../../src/hdlTop/masterAgentBFM/AhbMasterAssertion.sv Line: 198
# ** Info: HTRANS is Valid
#    Time: 90 ns Started: 70 ns  Scope: HdlTop.ahbMasterAgentBFM.ahbMasterMonitorBFM.ahb_assert File: ../../src/hdlTop/masterAgentBFM/AhbMasterAssertion.sv Line: 47
# UVM_INFO ../../src/hdlTop/masterAgentBFM/AhbMasterDriverBFM.sv(191) @ 110: reporter [AHB_MASTER_DRIVER_BFM] Bus is now IDLE
# &&&&values inside master monitor proxy '{haddr:3866565980, hselx:1, hburst:SINGLE, hmastlock:1, hprot:PRIVILEGED_SECURE_INSTRUCTION, hsize:BYTE, hnonsec:x, hexcl:x, hmaster:x, htrans:NONSEQ, hwdata:'{x, x, x, x, x, x, x, x, x, x, x, x, x, x, x, x, x}, hwstrb:'{0, 0, 0, 0, 0, 0, 0, 0, 0, 0, 0, 0, 0, 0, 0, 0, 2}, hwrite:READ, hrdata:'{0, 0, 0, 0, 0, 0, 0, 0, 0, 0, 0, 0, 0, 0, 0, 0, 2002855901}, hreadyout:x, hresp:OKAY, hexokay:x, hready:1, noOfWaitStates:0, busyControl:0}&&&
# UVM_INFO ../../src/hvlTop/masterAgent/AhbMasterMonitorProxy.sv(58) @ 110: uvm_test_top.ahbEnvironment.ahbMasterAgent[0].ahbMasterMonitorProxy [AhbMasterMonitorProxy] Sending packet via analysis_port: , 
#  -----------------------------------------------------------------------------------
# Name                      Type                  Size  Value                        
# -----------------------------------------------------------------------------------
# ahbMasterPacket           AhbMasterTransaction  -     @1229                        
#   haddr                   integral              32    'he6771d5c                   
#   hselx                   integral              1     'b1                          
#   hburst                  string                6     SINGLE                       
#   hmastlock               integral              1     'h1                          
#   hprot                   string                29    PRIVILEGED_SECURE_INSTRUCTION
#   hsize                   string                4     BYTE                         
#   hnonsec                 integral              1     'h0                          
#   hexcl                   integral              1     'h0                          
#   hmaster                 integral              1     'd0                          
#   htrans                  string                6     NONSEQ                       
#   hwrite                  string                4     READ                         
#   hreadyout               integral              1     'h0                          
#   hresp                   string                4     OKAY                         
#   hexokay                 integral              1     'h0                          
#   hready                  integral              1     'h1                          
#   noOfwaitStatesDetected  integral              32    'h0                          
#   hrdata[0]               integral              32    'h776127dd                   
# -----------------------------------------------------------------------------------
# 
# UVM_INFO ../../src/hvlTop/masterAgent/AhbMasterCoverage.sv(180) @ 110: uvm_test_top.ahbEnvironment.ahbMasterAgent[0].ahbMasterCoverage [AhbMasterCoverage] Before calling SAMPLE METHOD
# UVM_INFO ../../src/hvlTop/masterAgent/AhbMasterCoverage.sv(182) @ 110: uvm_test_top.ahbEnvironment.ahbMasterAgent[0].ahbMasterCoverage [AhbMasterCoverage] After calling SAMPLE METHOD
# UVM_INFO ../../src/hdlTop/slaveAgentBFM/AhbSlaveDriverBFM.sv(161) @ 110: reporter [AHB_SLAVE_DRIVER_BFM] Bus is now out of wait cycles
# &&&&values inside monitor proxy '{haddr:3866565980, hselx:1, hburst:SINGLE, hmastlock:x, hprot:PRIVILEGED_SECURE_INSTRUCTION, hsize:BYTE, hnonsec:0, hexcl:x, hmaster:x, htrans:NONSEQ, hwdata:'{x, x, x, x, x, x, x, x, x, x, x, x, x, x, x, x, x}, hwstrb:'{x, x, x, x, x, x, x, x, x, x, x, x, x, x, x, x, x}, hwrite:READ, hrdata:'{0, 0, 0, 0, 0, 0, 0, 0, 0, 0, 0, 0, 0, 0, 0, 0, 2002855901}, hreadyout:1, hresp:OKAY, hexokay:x, hready:x, noOfWaitStates:0, busyControl:0}&&&
# UVM_INFO ../../src/hvlTop/slaveAgent/AhbSlaveSequenceItemConverter.sv(149) @ 110: reporter [ahbSlaveSequeceItemconverterClass] After randomizing noofwaitstate = 00000000000000000000000000000000
# UVM_INFO ../../src/hvlTop/slaveAgent/AhbSlaveSequenceItemConverter.sv(177) @ 110: reporter [ahbSlaveSequeceItemconverterClass] -------------------------------------------------------------
# UVM_INFO ../../src/hvlTop/slaveAgent/AhbSlaveMonitorProxy.sv(57) @ 110: uvm_test_top.ahbEnvironment.ahbSlaveAgent[0].ahbSlaveMonitorProxy [AhbSlaveMonitorProxy] Sending packet via analysis_port: , 
#  ----------------------------------------------------------------------------
# Name                Type                 Size  Value                        
# ----------------------------------------------------------------------------
# slave Packet        AhbSlaveTransaction  -     @1233                        
#   haddr             integral             32    'he6771d5c                   
#   hselx             integral             1     'b1                          
#   hburst            string               6     SINGLE                       
#   hmastlock         integral             1     'h0                          
#   hprot             string               29    PRIVILEGED_SECURE_INSTRUCTION
#   hsize             string               4     BYTE                         
#   hnonsec           integral             1     'h0                          
#   hexcl             integral             1     'h0                          
#   hmaster           integral             1     'd0                          
#   htrans            string               6     NONSEQ                       
#   hwrite            string               4     READ                         
#   hreadyout         integral             1     'h1                          
#   hresp             string               4     OKAY                         
#   hexokay           integral             1     'h0                          
#   hready            integral             1     'h0                          
#   choosePacketData  integral             1     'd0                          
#   hrdata[0]         integral             32    'h776127dd                   
# ----------------------------------------------------------------------------
# 
# UVM_INFO ../../src/hvlTop/slaveAgent/AhbSlaveCoverage.sv(61) @ 110: uvm_test_top.ahbEnvironment.ahbSlaveAgent[0].ahbSlaveCoverage [AhbSlaveCoverage] AHB SLAVE COVERAGE
# UVM_INFO ../../src/hvlTop/environment/AhbScoreboard.sv(78) @ 110: uvm_test_top.ahbEnvironment.ahbScoreboard [AhbScoreboard] after calling master's analysis fifo get method
# UVM_INFO ../../src/hvlTop/environment/AhbScoreboard.sv(88) @ 110: uvm_test_top.ahbEnvironment.ahbScoreboard [AhbScoreboard] after calling slave's analysis fifo get method
# UVM_INFO ../../src/hvlTop/environment/AhbScoreboard.sv(172) @ 110: uvm_test_top.ahbEnvironment.ahbScoreboard [AhbScoreboard] --
# -----------------------------------------------SCOREBOARD COMPARISIONS--------------------------------------------------
# UVM_INFO ../../src/hvlTop/environment/AhbScoreboard.sv(190) @ 110: uvm_test_top.ahbEnvironment.ahbScoreboard [AhbScoreboard] ahb HADDR from master and slave is equal
# UVM_INFO ../../src/hvlTop/environment/AhbScoreboard.sv(192) @ 110: uvm_test_top.ahbEnvironment.ahbScoreboard [SB HADDR MATCH] Master HADDR = 'he6771d5c and Slave HADDR = 'he6771d5c
# UVM_INFO ../../src/hvlTop/environment/AhbScoreboard.sv(204) @ 110: uvm_test_top.ahbEnvironment.ahbScoreboard [AhbScoreboard] ahb HWRITE from master and slave is equal
# UVM_INFO ../../src/hvlTop/environment/AhbScoreboard.sv(206) @ 110: uvm_test_top.ahbEnvironment.ahbScoreboard [SB HWRITE MATCH] Master HWRITE = 'h0 and Slave hwrite = 'h0
# UVM_INFO ../../src/hvlTop/environment/AhbScoreboard.sv(219) @ 110: uvm_test_top.ahbEnvironment.ahbScoreboard [AhbScoreboard] ahb HRDATA from master and slave is equal
# UVM_INFO ../../src/hvlTop/environment/AhbScoreboard.sv(221) @ 110: uvm_test_top.ahbEnvironment.ahbScoreboard [SB HRDATA MATCHED] Master HRDATA = 2002855901 and Slave HRDATA = 2002855901
# UVM_INFO ../../src/hvlTop/environment/AhbScoreboard.sv(244) @ 110: uvm_test_top.ahbEnvironment.ahbScoreboard [AhbScoreboard] --
# -----------------------------------------------END OF SCOREBOARD COMPARISIONS---------------------------------------
# UVM_INFO ../../src/hvlTop/tb/virtualSequences//AhbVirtual8bitSingleReadSequence.sv(32) @ 110: uvm_test_top.ahbEnvironment.ahbVirtualSequencer@@ahbVirtual8bitSingleReadSequence [virtual sequence] out of virtual sequence
# ** Info: HMASTLOCK is asserted during a locked transfer
#    Time: 110 ns Started: 110 ns  Scope: HdlTop.ahbMasterAgentBFM.ahbMasterMonitorBFM.ahb_assert File: ../../src/hdlTop/masterAgentBFM/AhbMasterAssertion.sv Line: 104
# ** Info: Valid Read Transfer
#    Time: 110 ns Started: 90 ns  Scope: HdlTop.ahbSlaveAgentBFM.ahbSlaveMonitorBFM.ahb_cover File: ../../src/hdlTop/slaveAgentBFM/AhbSlaveCoverProperty.sv Line: 49
# ** Info: HSIZE matches the data width supported by the slave!
#    Time: 110 ns Started: 110 ns  Scope: HdlTop.ahbMasterAgentBFM.ahbMasterMonitorBFM.ahb_assert File: ../../src/hdlTop/masterAgentBFM/AhbMasterAssertion.sv Line: 180
# ** Info: Valid burst type!
#    Time: 110 ns Started: 110 ns  Scope: HdlTop.ahbMasterAgentBFM.ahbMasterMonitorBFM.ahb_assert File: ../../src/hdlTop/masterAgentBFM/AhbMasterAssertion.sv Line: 189
# ** Info: Transfer is single
#    Time: 110 ns Started: 90 ns  Scope: HdlTop.ahbSlaveAgentBFM.ahbSlaveMonitorBFM.ahb_cover File: ../../src/hdlTop/slaveAgentBFM/AhbSlaveCoverProperty.sv Line: 41
# ** Info: Valid Write Transfer
#    Time: 110 ns Started: 90 ns  Scope: HdlTop.ahbMasterAgentBFM.ahbMasterMonitorBFM.ahb_cover File: ../../src/hdlTop/masterAgentBFM/AhbMasterCoverProperty.sv Line: 49
# ** Info: HRDATA is valid during read transfer!
#    Time: 110 ns Started: 90 ns  Scope: HdlTop.ahbSlaveAgentBFM.ahbSlaveMonitorBFM.ahb_assert File: ../../src/hdlTop/slaveAgentBFM/AhbSlaveAssertion.sv Line: 59
# ** Info: HRESP is OKAY for valid transactions!
#    Time: 110 ns Started: 90 ns  Scope: HdlTop.ahbSlaveAgentBFM.ahbSlaveMonitorBFM.ahb_assert File: ../../src/hdlTop/slaveAgentBFM/AhbSlaveAssertion.sv Line: 50
# ** Info: HREADYOUT is high during valid transactions!
#    Time: 110 ns Started: 90 ns  Scope: HdlTop.ahbSlaveAgentBFM.ahbSlaveMonitorBFM.ahb_assert File: ../../src/hdlTop/slaveAgentBFM/AhbSlaveAssertion.sv Line: 31
# ** Info: Hwstrb valid
#    Time: 110 ns Started: 110 ns  Scope: HdlTop.ahbMasterAgentBFM.ahbMasterMonitorBFM.ahb_assert File: ../../src/hdlTop/masterAgentBFM/AhbMasterAssertion.sv Line: 198
# ** Info: HTRANS is Valid
#    Time: 110 ns Started: 90 ns  Scope: HdlTop.ahbMasterAgentBFM.ahbMasterMonitorBFM.ahb_assert File: ../../src/hdlTop/masterAgentBFM/AhbMasterAssertion.sv Line: 47
# ** Info: Hresp is valid
#    Time: 110 ns Started: 90 ns  Scope: HdlTop.ahbSlaveAgentBFM.ahbSlaveMonitorBFM.ahb_cover File: ../../src/hdlTop/slaveAgentBFM/AhbSlaveCoverProperty.sv Line: 57
# ** Info: Hresp is valid
#    Time: 110 ns Started: 70 ns  Scope: HdlTop.ahbSlaveAgentBFM.ahbSlaveMonitorBFM.ahb_cover File: ../../src/hdlTop/slaveAgentBFM/AhbSlaveCoverProperty.sv Line: 57
# &&&&values inside master monitor proxy '{haddr:0, hselx:1, hburst:SINGLE, hmastlock:0, hprot:PRIVILEGED_SECURE_INSTRUCTION, hsize:BYTE, hnonsec:x, hexcl:x, hmaster:x, htrans:IDLE, hwdata:'{x, x, x, x, x, x, x, x, x, x, x, x, x, x, x, x, x}, hwstrb:'{0, 0, 0, 0, 0, 0, 0, 0, 0, 0, 0, 0, 0, 0, 0, 0, 2}, hwrite:READ, hrdata:'{0, 0, 0, 0, 0, 0, 0, 0, 0, 0, 0, 0, 0, 0, 0, 0, 2002855901}, hreadyout:x, hresp:OKAY, hexokay:x, hready:1, noOfWaitStates:0, busyControl:0}&&&
# UVM_INFO ../../src/hvlTop/masterAgent/AhbMasterMonitorProxy.sv(58) @ 130: uvm_test_top.ahbEnvironment.ahbMasterAgent[0].ahbMasterMonitorProxy [AhbMasterMonitorProxy] Sending packet via analysis_port: , 
#  -----------------------------------------------------------------------------------
# Name                      Type                  Size  Value                        
# -----------------------------------------------------------------------------------
# ahbMasterPacket           AhbMasterTransaction  -     @1239                        
#   haddr                   integral              32    'h0                          
#   hselx                   integral              1     'b1                          
#   hburst                  string                6     SINGLE                       
#   hmastlock               integral              1     'h0                          
#   hprot                   string                29    PRIVILEGED_SECURE_INSTRUCTION
#   hsize                   string                4     BYTE                         
#   hnonsec                 integral              1     'h0                          
#   hexcl                   integral              1     'h0                          
#   hmaster                 integral              1     'd0                          
#   htrans                  string                4     IDLE                         
#   hwrite                  string                4     READ                         
#   hreadyout               integral              1     'h0                          
#   hresp                   string                4     OKAY                         
#   hexokay                 integral              1     'h0                          
#   hready                  integral              1     'h1                          
#   noOfwaitStatesDetected  integral              32    'h0                          
#   hrdata[0]               integral              32    'h776127dd                   
# -----------------------------------------------------------------------------------
# 
# UVM_INFO ../../src/hvlTop/masterAgent/AhbMasterCoverage.sv(180) @ 130: uvm_test_top.ahbEnvironment.ahbMasterAgent[0].ahbMasterCoverage [AhbMasterCoverage] Before calling SAMPLE METHOD
# UVM_INFO ../../src/hvlTop/masterAgent/AhbMasterCoverage.sv(182) @ 130: uvm_test_top.ahbEnvironment.ahbMasterAgent[0].ahbMasterCoverage [AhbMasterCoverage] After calling SAMPLE METHOD
# UVM_INFO ../../src/hvlTop/slaveAgent/AhbSlaveSequenceItemConverter.sv(149) @ 130: reporter [ahbSlaveSequeceItemconverterClass] After randomizing noofwaitstate = 00000000000000000000000000000000
# UVM_INFO ../../src/hvlTop/slaveAgent/AhbSlaveSequenceItemConverter.sv(177) @ 130: reporter [ahbSlaveSequeceItemconverterClass] -------------------------------------------------------------
# &&&&values inside monitor proxy '{haddr:0, hselx:1, hburst:SINGLE, hmastlock:x, hprot:PRIVILEGED_SECURE_INSTRUCTION, hsize:BYTE, hnonsec:0, hexcl:x, hmaster:x, htrans:IDLE, hwdata:'{x, x, x, x, x, x, x, x, x, x, x, x, x, x, x, x, x}, hwstrb:'{x, x, x, x, x, x, x, x, x, x, x, x, x, x, x, x, x}, hwrite:READ, hrdata:'{0, 0, 0, 0, 0, 0, 0, 0, 0, 0, 0, 0, 0, 0, 0, 0, 2002855901}, hreadyout:1, hresp:OKAY, hexokay:x, hready:x, noOfWaitStates:0, busyControl:0}&&&
# UVM_INFO ../../src/hvlTop/slaveAgent/AhbSlaveSequenceItemConverter.sv(149) @ 130: reporter [ahbSlaveSequeceItemconverterClass] After randomizing noofwaitstate = 00000000000000000000000000000000
# UVM_INFO ../../src/hvlTop/slaveAgent/AhbSlaveSequenceItemConverter.sv(177) @ 130: reporter [ahbSlaveSequeceItemconverterClass] -------------------------------------------------------------
# UVM_INFO ../../src/hvlTop/slaveAgent/AhbSlaveMonitorProxy.sv(57) @ 130: uvm_test_top.ahbEnvironment.ahbSlaveAgent[0].ahbSlaveMonitorProxy [AhbSlaveMonitorProxy] Sending packet via analysis_port: , 
#  ----------------------------------------------------------------------------
# Name                Type                 Size  Value                        
# ----------------------------------------------------------------------------
# slave Packet        AhbSlaveTransaction  -     @1243                        
#   haddr             integral             32    'h0                          
#   hselx             integral             1     'b1                          
#   hburst            string               6     SINGLE                       
#   hmastlock         integral             1     'h0                          
#   hprot             string               29    PRIVILEGED_SECURE_INSTRUCTION
#   hsize             string               4     BYTE                         
#   hnonsec           integral             1     'h0                          
#   hexcl             integral             1     'h0                          
#   hmaster           integral             1     'd0                          
#   htrans            string               4     IDLE                         
#   hwrite            string               4     READ                         
#   hreadyout         integral             1     'h1                          
#   hresp             string               4     OKAY                         
#   hexokay           integral             1     'h0                          
#   hready            integral             1     'h0                          
#   choosePacketData  integral             1     'd0                          
#   hrdata[0]         integral             32    'h776127dd                   
# ----------------------------------------------------------------------------
# 
# UVM_INFO ../../src/hvlTop/slaveAgent/AhbSlaveCoverage.sv(61) @ 130: uvm_test_top.ahbEnvironment.ahbSlaveAgent[0].ahbSlaveCoverage [AhbSlaveCoverage] AHB SLAVE COVERAGE
# UVM_INFO ../../src/hvlTop/environment/AhbScoreboard.sv(78) @ 130: uvm_test_top.ahbEnvironment.ahbScoreboard [AhbScoreboard] after calling master's analysis fifo get method
# UVM_INFO ../../src/hvlTop/environment/AhbScoreboard.sv(88) @ 130: uvm_test_top.ahbEnvironment.ahbScoreboard [AhbScoreboard] after calling slave's analysis fifo get method
# ---------------------------------------------------------
# Name                Type                 Size  Value     
# ---------------------------------------------------------
# req                 AhbSlaveTransaction  -     @1247     
#   haddr             integral             32    'h0       
#   hselx             integral             1     'b0       
#   hburst            string               0     ""        
#   hmastlock         integral             1     'h0       
#   hprot             string               0     ""        
#   hsize             string               0     ""        
#   hnonsec           integral             1     'h0       
#   hexcl             integral             1     'h0       
#   hmaster           integral             1     'd0       
#   htrans            string               0     ""        
#   hwrite            string               4     READ      
#   hreadyout         integral             1     'h0       
#   hresp             string               0     ""        
#   hexokay           integral             1     'h0       
#   hready            integral             1     'h0       
#   choosePacketData  integral             1     'd0       
#   hrdata[0]         integral             32    'h6ffff9c0
#   hrdata[1]         integral             32    'h1336a508
#   hrdata[2]         integral             32    'hb53a047c
#   hrdata[3]         integral             32    'h8f2b1ffe
#   hrdata[4]         integral             32    'h7f03cb19
#   hrdata[5]         integral             32    'he7ba0ef4
#   hrdata[6]         integral             32    'hd5e8a241
#   hrdata[7]         integral             32    'h9242e247
#   hrdata[8]         integral             32    'hd72b0d89
#   hrdata[9]         integral             32    'h6eb1bbcc
#   hrdata[10]        integral             32    'h2d904ebb
#   hrdata[11]        integral             32    'h703f9d73
#   hrdata[12]        integral             32    'h21b035fe
#   hrdata[13]        integral             32    'h7b0cb400
#   hrdata[14]        integral             32    'h5babbf7b
#   hrdata[15]        integral             32    'h52b19e93
# ---------------------------------------------------------
# UVM_INFO ../../src/hvlTop/slaveAgent/AhbSlaveSequenceItemConverter.sv(65) @ 130: reporter [ahbSlaveSequeceItemconverterClass] After randomizing noofwaitstate = 00000000000000000000000000000000
# UVM_INFO ../../src/hvlTop/slaveAgent/AhbSlaveSequenceItemConverter.sv(95) @ 130: reporter [ahbSlaveSequeceItemconverterClass] -------------------------------------------------------------
# UVM_INFO ../../src/hdlTop/slaveAgentBFM/AhbSlaveDriverBFM.sv(52) @ 130: reporter [AHB_SLAVE_DRIVER_BFM] DRIVE TO BFM TASK
# UVM_INFO ../../src/hdlTop/slaveAgentBFM/AhbSlaveDriverBFM.sv(60) @ 130: reporter [AHB_SLAVE_DRIVER_BFM] AFTERHSELASSERTED HTRANSFER = 0
# UVM_INFO ../../src/hdlTop/slaveAgentBFM/AhbSlaveDriverBFM.sv(71) @ 130: reporter [AHB_SLAVE_DRIVER_BFM] DRIVING THE Single Transfer
# ** Info: HREADYOUT is high during valid transactions!
#    Time: 130 ns Started: 110 ns  Scope: HdlTop.ahbSlaveAgentBFM.ahbSlaveMonitorBFM.ahb_assert File: ../../src/hdlTop/slaveAgentBFM/AhbSlaveAssertion.sv Line: 31
# ** Info: HRESP is OKAY for valid transactions!
#    Time: 130 ns Started: 110 ns  Scope: HdlTop.ahbSlaveAgentBFM.ahbSlaveMonitorBFM.ahb_assert File: ../../src/hdlTop/slaveAgentBFM/AhbSlaveAssertion.sv Line: 50
# ** Info: HTRANS is Valid
#    Time: 130 ns Started: 110 ns  Scope: HdlTop.ahbMasterAgentBFM.ahbMasterMonitorBFM.ahb_assert File: ../../src/hdlTop/masterAgentBFM/AhbMasterAssertion.sv Line: 47
# ** Info: Trans going from non seq to idle in single burst
#    Time: 130 ns Started: 110 ns  Scope: HdlTop.ahbMasterAgentBFM.ahbMasterMonitorBFM.ahb_cover File: ../../src/hdlTop/masterAgentBFM/AhbMasterCoverProperty.sv Line: 66
# ** Info: HRDATA is valid during read transfer!
#    Time: 130 ns Started: 110 ns  Scope: HdlTop.ahbSlaveAgentBFM.ahbSlaveMonitorBFM.ahb_assert File: ../../src/hdlTop/slaveAgentBFM/AhbSlaveAssertion.sv Line: 59
# ** Info: Valid Write Transfer
#    Time: 130 ns Started: 110 ns  Scope: HdlTop.ahbMasterAgentBFM.ahbMasterMonitorBFM.ahb_cover File: ../../src/hdlTop/masterAgentBFM/AhbMasterCoverProperty.sv Line: 49
# ** Info: Transfer is single
#    Time: 130 ns Started: 110 ns  Scope: HdlTop.ahbSlaveAgentBFM.ahbSlaveMonitorBFM.ahb_cover File: ../../src/hdlTop/slaveAgentBFM/AhbSlaveCoverProperty.sv Line: 41
# ** Info: Valid Read Transfer
#    Time: 130 ns Started: 110 ns  Scope: HdlTop.ahbSlaveAgentBFM.ahbSlaveMonitorBFM.ahb_cover File: ../../src/hdlTop/slaveAgentBFM/AhbSlaveCoverProperty.sv Line: 49
# ** Info: Hresp is valid
#    Time: 130 ns Started: 110 ns  Scope: HdlTop.ahbSlaveAgentBFM.ahbSlaveMonitorBFM.ahb_cover File: ../../src/hdlTop/slaveAgentBFM/AhbSlaveCoverProperty.sv Line: 57
# UVM_INFO verilog_src/uvm-1.1d/src/base/uvm_objection.svh(1268) @ 150: reporter [TEST_DONE] 'run' phase is ready to proceed to the 'extract' phase
# &&&&values inside master monitor proxy '{haddr:0, hselx:1, hburst:SINGLE, hmastlock:0, hprot:PRIVILEGED_SECURE_INSTRUCTION, hsize:BYTE, hnonsec:x, hexcl:x, hmaster:x, htrans:IDLE, hwdata:'{x, x, x, x, x, x, x, x, x, x, x, x, x, x, x, x, x}, hwstrb:'{0, 0, 0, 0, 0, 0, 0, 0, 0, 0, 0, 0, 0, 0, 0, 0, 2}, hwrite:READ, hrdata:'{0, 0, 0, 0, 0, 0, 0, 0, 0, 0, 0, 0, 0, 0, 0, 0, 3244437142}, hreadyout:x, hresp:OKAY, hexokay:x, hready:1, noOfWaitStates:0, busyControl:0}&&&
# UVM_INFO ../../src/hvlTop/masterAgent/AhbMasterMonitorProxy.sv(58) @ 150: uvm_test_top.ahbEnvironment.ahbMasterAgent[0].ahbMasterMonitorProxy [AhbMasterMonitorProxy] Sending packet via analysis_port: , 
#  -----------------------------------------------------------------------------------
# Name                      Type                  Size  Value                        
# -----------------------------------------------------------------------------------
# ahbMasterPacket           AhbMasterTransaction  -     @1251                        
#   haddr                   integral              32    'h0                          
#   hselx                   integral              1     'b1                          
#   hburst                  string                6     SINGLE                       
#   hmastlock               integral              1     'h0                          
#   hprot                   string                29    PRIVILEGED_SECURE_INSTRUCTION
#   hsize                   string                4     BYTE                         
#   hnonsec                 integral              1     'h0                          
#   hexcl                   integral              1     'h0                          
#   hmaster                 integral              1     'd0                          
#   htrans                  string                4     IDLE                         
#   hwrite                  string                4     READ                         
#   hreadyout               integral              1     'h0                          
#   hresp                   string                4     OKAY                         
#   hexokay                 integral              1     'h0                          
#   hready                  integral              1     'h1                          
#   noOfwaitStatesDetected  integral              32    'h0                          
#   hrdata[0]               integral              32    'hc1622e96                   
# -----------------------------------------------------------------------------------
# 
# UVM_INFO ../../src/hvlTop/masterAgent/AhbMasterCoverage.sv(180) @ 150: uvm_test_top.ahbEnvironment.ahbMasterAgent[0].ahbMasterCoverage [AhbMasterCoverage] Before calling SAMPLE METHOD
# UVM_INFO ../../src/hvlTop/masterAgent/AhbMasterCoverage.sv(182) @ 150: uvm_test_top.ahbEnvironment.ahbMasterAgent[0].ahbMasterCoverage [AhbMasterCoverage] After calling SAMPLE METHOD
# UVM_INFO ../../src/hdlTop/slaveAgentBFM/AhbSlaveDriverBFM.sv(161) @ 150: reporter [AHB_SLAVE_DRIVER_BFM] Bus is now out of wait cycles
# &&&&values inside monitor proxy '{haddr:0, hselx:1, hburst:SINGLE, hmastlock:x, hprot:PRIVILEGED_SECURE_INSTRUCTION, hsize:BYTE, hnonsec:0, hexcl:x, hmaster:x, htrans:IDLE, hwdata:'{x, x, x, x, x, x, x, x, x, x, x, x, x, x, x, x, x}, hwstrb:'{x, x, x, x, x, x, x, x, x, x, x, x, x, x, x, x, x}, hwrite:READ, hrdata:'{0, 0, 0, 0, 0, 0, 0, 0, 0, 0, 0, 0, 0, 0, 0, 0, 3244437142}, hreadyout:1, hresp:OKAY, hexokay:x, hready:x, noOfWaitStates:0, busyControl:0}&&&
# UVM_INFO ../../src/hvlTop/slaveAgent/AhbSlaveSequenceItemConverter.sv(149) @ 150: reporter [ahbSlaveSequeceItemconverterClass] After randomizing noofwaitstate = 00000000000000000000000000000000
# UVM_INFO ../../src/hvlTop/slaveAgent/AhbSlaveSequenceItemConverter.sv(177) @ 150: reporter [ahbSlaveSequeceItemconverterClass] -------------------------------------------------------------
# UVM_INFO ../../src/hvlTop/slaveAgent/AhbSlaveMonitorProxy.sv(57) @ 150: uvm_test_top.ahbEnvironment.ahbSlaveAgent[0].ahbSlaveMonitorProxy [AhbSlaveMonitorProxy] Sending packet via analysis_port: , 
#  ----------------------------------------------------------------------------
# Name                Type                 Size  Value                        
# ----------------------------------------------------------------------------
# slave Packet        AhbSlaveTransaction  -     @1255                        
#   haddr             integral             32    'h0                          
#   hselx             integral             1     'b1                          
#   hburst            string               6     SINGLE                       
#   hmastlock         integral             1     'h0                          
#   hprot             string               29    PRIVILEGED_SECURE_INSTRUCTION
#   hsize             string               4     BYTE                         
#   hnonsec           integral             1     'h0                          
#   hexcl             integral             1     'h0                          
#   hmaster           integral             1     'd0                          
#   htrans            string               4     IDLE                         
#   hwrite            string               4     READ                         
#   hreadyout         integral             1     'h1                          
#   hresp             string               4     OKAY                         
#   hexokay           integral             1     'h0                          
#   hready            integral             1     'h0                          
#   choosePacketData  integral             1     'd0                          
#   hrdata[0]         integral             32    'hc1622e96                   
# ----------------------------------------------------------------------------
# 
# UVM_INFO ../../src/hvlTop/slaveAgent/AhbSlaveCoverage.sv(61) @ 150: uvm_test_top.ahbEnvironment.ahbSlaveAgent[0].ahbSlaveCoverage [AhbSlaveCoverage] AHB SLAVE COVERAGE
# UVM_INFO ../../src/hvlTop/environment/AhbScoreboard.sv(78) @ 150: uvm_test_top.ahbEnvironment.ahbScoreboard [AhbScoreboard] after calling master's analysis fifo get method
# UVM_INFO ../../src/hvlTop/environment/AhbScoreboard.sv(88) @ 150: uvm_test_top.ahbEnvironment.ahbScoreboard [AhbScoreboard] after calling slave's analysis fifo get method
# UVM_INFO ../../src/hvlTop/environment/AhbScoreboard.sv(253) @ 150: uvm_test_top.ahbEnvironment.ahbScoreboard [AhbScoreboard] --
# ----------------------------------------------SCOREBOARD CHECK PHASE---------------------------------------
# UVM_INFO ../../src/hvlTop/environment/AhbScoreboard.sv(254) @ 150: uvm_test_top.ahbEnvironment.ahbScoreboard [AhbScoreboard]  Scoreboard Check Phase is starting
# UVM_INFO ../../src/hvlTop/environment/AhbScoreboard.sv(270) @ 150: uvm_test_top.ahbEnvironment.ahbScoreboard [AhbScoreboard] all master_paddr comparisions are succesful
# UVM_INFO ../../src/hvlTop/environment/AhbScoreboard.sv(281) @ 150: uvm_test_top.ahbEnvironment.ahbScoreboard [AhbScoreboard] all master_hwrite comparisions are succesful
# UVM_INFO ../../src/hvlTop/environment/AhbScoreboard.sv(293) @ 150: uvm_test_top.ahbEnvironment.ahbScoreboard [AhbScoreboard] all slave_prdata comparisions are succesful
# UVM_INFO ../../src/hvlTop/environment/AhbScoreboard.sv(304) @ 150: uvm_test_top.ahbEnvironment.ahbScoreboard [AhbScoreboard] master and slave have equal no. of transactions
# UVM_INFO ../../src/hvlTop/environment/AhbScoreboard.sv(314) @ 150: uvm_test_top.ahbEnvironment.ahbScoreboard [SC_CheckPhase] APB Master analysis FIFO is empty
# UVM_INFO ../../src/hvlTop/environment/AhbScoreboard.sv(323) @ 150: uvm_test_top.ahbEnvironment.ahbScoreboard [SC_CheckPhase] APB Slave analysis FIFO is empty
# UVM_INFO ../../src/hvlTop/environment/AhbScoreboard.sv(331) @ 150: uvm_test_top.ahbEnvironment.ahbScoreboard [AhbScoreboard] --
# ----------------------------------------------END OF SCOREBOARD CHECK PHASE---------------------------------------
# UVM_INFO ../../src/hvlTop/masterAgent/AhbMasterCoverage.sv(187) @ 150: uvm_test_top.ahbEnvironment.ahbMasterAgent[0].ahbMasterCoverage [AhbMasterCoverage] Entered the report_phase of AHB Master Coverage
# UVM_INFO ../../src/hvlTop/masterAgent/AhbMasterCoverage.sv(188) @ 150: uvm_test_top.ahbEnvironment.ahbMasterAgent[0].ahbMasterCoverage [AhbMasterCoverage] AHB Master Agent Coverage = 27.63 %
# UVM_INFO ../../src/hvlTop/environment/AhbScoreboard.sv(337) @ 150: uvm_test_top.ahbEnvironment.ahbScoreboard [scoreboard] --
# --------------------------------------------------Scoreboard Report-----------------------------------------------
# UVM_INFO ../../src/hvlTop/environment/AhbScoreboard.sv(339) @ 150: uvm_test_top.ahbEnvironment.ahbScoreboard [AhbScoreboard]  Scoreboard Report Phase is starting
# UVM_INFO ../../src/hvlTop/environment/AhbScoreboard.sv(342) @ 150: uvm_test_top.ahbEnvironment.ahbScoreboard [AhbScoreboard] No. of transactions from master:6
# UVM_INFO ../../src/hvlTop/environment/AhbScoreboard.sv(345) @ 150: uvm_test_top.ahbEnvironment.ahbScoreboard [AhbScoreboard] No. of transactions from slave:6
# UVM_INFO ../../src/hvlTop/environment/AhbScoreboard.sv(348) @ 150: uvm_test_top.ahbEnvironment.ahbScoreboard [AhbScoreboard] Total no. of byte wise master_hwdata comparisions passed:0
# UVM_INFO ../../src/hvlTop/environment/AhbScoreboard.sv(351) @ 150: uvm_test_top.ahbEnvironment.ahbScoreboard [AhbScoreboard] Total no. of byte wise master_paddr comparisions passed:2
# UVM_INFO ../../src/hvlTop/environment/AhbScoreboard.sv(354) @ 150: uvm_test_top.ahbEnvironment.ahbScoreboard [AhbScoreboard] Total no. of byte wise master_hwrite comparisions passed:2
# UVM_INFO ../../src/hvlTop/environment/AhbScoreboard.sv(357) @ 150: uvm_test_top.ahbEnvironment.ahbScoreboard [AhbScoreboard] Total no. of byte wise slave_prdata comparisions passed:2
# UVM_INFO ../../src/hvlTop/environment/AhbScoreboard.sv(360) @ 150: uvm_test_top.ahbEnvironment.ahbScoreboard [AhbScoreboard] No. of byte wise master_hwdata comparision failed:0
# UVM_INFO ../../src/hvlTop/environment/AhbScoreboard.sv(363) @ 150: uvm_test_top.ahbEnvironment.ahbScoreboard [AhbScoreboard] No. of byte wise master_paddr comparision failed:0
# UVM_INFO ../../src/hvlTop/environment/AhbScoreboard.sv(366) @ 150: uvm_test_top.ahbEnvironment.ahbScoreboard [AhbScoreboard] No. of byte wise master_hwrite comparision failed:0
# UVM_INFO ../../src/hvlTop/environment/AhbScoreboard.sv(369) @ 150: uvm_test_top.ahbEnvironment.ahbScoreboard [AhbScoreboard] No. of byte wise slave_prdata comparision failed:0
# UVM_INFO ../../src/hvlTop/environment/AhbScoreboard.sv(371) @ 150: uvm_test_top.ahbEnvironment.ahbScoreboard [scoreboard] --
# --------------------------------------------------End of Scoreboard Report-----------------------------------------------
# UVM_INFO ../../src/hvlTop/slaveAgent/AhbSlaveCoverage.sv(67) @ 150: uvm_test_top.ahbEnvironment.ahbSlaveAgent[0].ahbSlaveCoverage [AhbSlaveCoverage] Entered the report_phase of AHB Slave Coverage
# UVM_INFO ../../src/hvlTop/slaveAgent/AhbSlaveCoverage.sv(68) @ 150: uvm_test_top.ahbEnvironment.ahbSlaveAgent[0].ahbSlaveCoverage [AhbSlaveCoverage] AHB Slave Agent Coverage = 75.00 %
# 
# --- UVM Report Summary ---
# 
# ** Report counts by severity
# UVM_INFO :  156
# UVM_WARNING :    0
# UVM_ERROR :    0
# UVM_FATAL :    0
# ** Report counts by id
# [AHB]     1
# [AHB_MASTER_DRIVER_BFM]     7
# [AHB_MASTER_MONITOR_BFM]     3
# [AHB_SLAVE_DRIVER_BFM]    15
# [AHB_SLAVE_MONITOR_BFM]     3
# [Ahb8bitSingleReadTest]     4
# [AhbMasterCoverProperty]     1
# [AhbMasterCoverage]    14
# [AhbMasterDriverProxy]     1
# [AhbMasterMonitorProxy]     7
# [AhbScoreboard]    40
# [AhbSlaveCoverProperty]     1
# [AhbSlaveCoverage]     8
# [AhbSlaveDriverProxy]     1
# [AhbSlaveMonitorProxy]     6
# [HDL_TOP]     1
# [INSIDESINGLETRANSFER]     1
# [MASTER_ASSERTIONS]     1
# [Questa UVM]     3
# [RNTST]     1
# [SB HADDR MATCH]     2
# [SB HRDATA MATCHED]     2
# [SB HWRITE MATCH]     2
# [SC_CheckPhase]     2
# [TEST_DONE]     1
# [UVMTOP]     1
# [ahb master agent bfm]     1
# [ahb slave agent bfm]     1
# [ahbSlaveSequeceItemconverterClass]    22
# [scoreboard]     2
# [virtual sequence]     1
# ** Note: $finish    : /tools/mentor/questasim_10.6c/questasim/linux/../verilog_src/uvm-1.1d/src/base/uvm_root.svh(430)
#    Time: 150 ns  Iteration: 53  Instance: /HvlTop
# Saving coverage database on exit...
# End time: 16:30:48 on Feb 27,2025, Elapsed time: 0:00:02
# Errors: 0, Warnings: 0
