# vsim -vopt work.HvlTop work.HdlTop -voptargs="+acc=npr" -sv_seed random -assertdebug "+UVM_TESTNAME=AhbWriteWithBusyToBusyTest" "+UVM_VERBOSITY=UVM_HIGH" "+define+" -l AhbWriteWithBusyToBusyTest/AhbWriteWithBusyToBusyTest.log -sva -coverage -c -do "log -r /*; add wave -r /*; coverage save -onexit -assert -directive -cvg -codeAll AhbWriteWithBusyToBusyTest/AhbWriteWithBusyToBusyTest_coverage.ucdb; run -all; exit" -wlf AhbWriteWithBusyToBusyTest/waveform.wlf 
# Start time: 16:46:46 on Apr 02,2025
# ** Note: (vsim-8009) Loading existing optimized design _opt
# //  Questa Sim
# //  Version 10.6c linux Jul 25 2017
# //
# //  Copyright 1991-2017 Mentor Graphics Corporation
# //  All Rights Reserved.
# //
# //  QuestaSim and its associated documentation contain trade
# //  secrets and commercial or financial information that are the property of
# //  Mentor Graphics Corporation and are privileged, confidential,
# //  and exempt from disclosure under the Freedom of Information Act,
# //  5 U.S.C. Section 552. Furthermore, this information
# //  is prohibited from disclosure under the Trade Secrets Act,
# //  18 U.S.C. Section 1905.
# //
# Loading sv_std.std
# Loading work.AhbSlaveDriverBFM(fast)
# Loading work.AhbSlaveMonitorBFM(fast)
# Loading work.AhbGlobalPackage(fast)
# Loading mtiUvm.uvm_pkg
# Loading work.AhbSlavePackage(fast)
# Loading work.AhbMasterDriverBFM(fast)
# Loading work.AhbMasterMonitorBFM(fast)
# Loading work.AhbMasterPackage(fast)
# Loading work.AhbEnvironmentPackage(fast)
# Loading work.AhbSlaveSequencePackage(fast)
# Loading work.AhbMasterSequencePackage(fast)
# Loading work.AhbVirtualSequencePackage(fast)
# Loading work.AhbTestPackage(fast)
# Loading work.HvlTop(fast)
# Loading work.HdlTop(fast)
# Loading work.AhbInterface_sv_unit(fast)
# Loading work.AhbInterface(fast)
# Loading work.AhbMasterAgentBFM(fast)
# Loading work.AhbMasterDriverBFM_sv_unit(fast)
# Loading work.AhbMasterDriverBFM(fast)
# Loading work.AhbMasterMonitorBFM_sv_unit(fast)
# Loading work.AhbMasterMonitorBFM(fast)
# Loading work.AhbMasterCoverProperty_sv_unit(fast)
# Loading work.AhbMasterCoverProperty(fast)
# Loading work.AhbMasterAssertion_sv_unit(fast)
# Loading work.AhbMasterAssertion(fast)
# Loading work.AhbSlaveAgentBFM(fast)
# Loading work.AhbSlaveDriverBFM_sv_unit(fast)
# Loading work.AhbSlaveDriverBFM(fast)
# Loading work.AhbSlaveMonitorBFM_sv_unit(fast)
# Loading work.AhbSlaveMonitorBFM(fast)
# Loading work.AhbSlaveCoverProperty_sv_unit(fast)
# Loading work.AhbSlaveCoverProperty(fast)
# Loading work.AhbSlaveAssertion_sv_unit(fast)
# Loading work.AhbSlaveAssertion(fast)
# Loading mtiUvm.questa_uvm_pkg(fast)
# Loading /tools/mentor/questasim_10.6c/questasim/uvm-1.1d/linux/uvm_dpi.so
# Sv_Seed = 1975745923
# log -r /*
#  add wave -r /*
#  coverage save -onexit -assert -directive -cvg -codeAll AhbWriteWithBusyToBusyTest/AhbWriteWithBusyToBusyTest_coverage.ucdb
#  run -all
# ----------------------------------------------------------------
# UVM-1.1d
# (C) 2007-2013 Mentor Graphics Corporation
# (C) 2007-2013 Cadence Design Systems, Inc.
# (C) 2006-2013 Synopsys, Inc.
# (C) 2011-2013 Cypress Semiconductor Corp.
# ----------------------------------------------------------------
# 
#   ***********       IMPORTANT RELEASE NOTES         ************
# 
#   You are using a version of the UVM library that has been compiled
#   with `UVM_NO_DEPRECATED undefined.
#   See http://www.eda.org/svdb/view.php?id=3313 for more details.
# 
#   You are using a version of the UVM library that has been compiled
#   with `UVM_OBJECT_MUST_HAVE_CONSTRUCTOR undefined.
#   See http://www.eda.org/svdb/view.php?id=3770 for more details.
# 
#       (Specify +UVM_NO_RELNOTES to turn off this notice)
# 
# UVM_INFO verilog_src/questa_uvm_pkg-1.2/src/questa_uvm_pkg.sv(215) @ 0: reporter [Questa UVM] QUESTA_UVM-1.2.3
# UVM_INFO verilog_src/questa_uvm_pkg-1.2/src/questa_uvm_pkg.sv(217) @ 0: reporter [Questa UVM]  questa_uvm::init(+struct)
# UVM_INFO @ 0: reporter [RNTST] Running test AhbWriteWithBusyToBusyTest...
# UVM_INFO ../../src/hdlTop/HdlTop.sv(14) @ 0: reporter [HDL_TOP] HDL_TOP
# UVM_INFO ../../src/hdlTop/masterAgentBFM/AhbMasterAgentBFM.sv(10) @ 0: reporter [ahb master agent bfm] AHB MASTER AGENT BFM
# UVM_INFO ../../src/hdlTop/masterAgentBFM/AhbMasterDriverBFM.sv(35) @ 0: reporter [AHB_MASTER_DRIVER_BFM] AHB_MASTER_DRIVER_BFM
# UVM_INFO ../../src/hdlTop/masterAgentBFM/AhbMasterMonitorBFM.sv(38) @ 0: reporter [AHB_MASTER_MONITOR_BFM] AHB MASTER MONITOR BFM
# UVM_INFO ../../src/hdlTop/masterAgentBFM/AhbMasterCoverProperty.sv(32) @ 0: reporter [AhbMasterCoverProperty] AhbMasterCoverProperty
# UVM_INFO ../../src/hdlTop/masterAgentBFM/AhbMasterAssertion.sv(29) @ 0: reporter [MASTER_ASSERTIONS] MASTER_ASSERTIONS
# UVM_INFO ../../src/hdlTop/slaveAgentBFM/AhbSlaveAgentBFM.sv(10) @ 0: reporter [ahb slave agent bfm] AHB SLAVE AGENT BFM
# UVM_INFO ../../src/hdlTop/slaveAgentBFM/AhbSlaveDriverBFM.sv(38) @ 0: reporter [AHB_SLAVE_DRIVER_BFM] AHB_SLAVE_DRIVER_BFM
# UVM_INFO ../../src/hdlTop/slaveAgentBFM/AhbSlaveMonitorBFM.sv(39) @ 0: reporter [AHB_SLAVE_MONITOR_BFM] AHB_SLAVE_MONITOR_BFM
# UVM_INFO ../../src/hdlTop/slaveAgentBFM/AhbSlaveCoverProperty.sv(32) @ 0: reporter [AhbSlaveCoverProperty] AhbSlaveCoverProperty
# UVM_INFO ../../src/hvlTop/tb/test/AhbBaseTest.sv(48) @ 0: uvm_test_top [AhbWriteWithBusyToBusyTest] 
# AHB_MASTER_CONFIG[0]
# ----------------------------------------------------------
# Name                     Type                  Size  Value
# ----------------------------------------------------------
# AhbMasterAgentConfig[0]  AhbMasterAgentConfig  -     @497 
#   is_active              integral              1     1    
#   hasCoverage            integral              1     1    
# ----------------------------------------------------------
# 
# UVM_INFO ../../src/hvlTop/tb/test/AhbBaseTest.sv(60) @ 0: uvm_test_top [AhbWriteWithBusyToBusyTest] 
# AHB_SLAVE_CONFIG[0]
# -------------------------------------------------------------
# Name                    Type                 Size  Value     
# -------------------------------------------------------------
# AhbSlaveAgentConfig[0]  AhbSlaveAgentConfig  -     @502      
#   is_active             string               10    UVM_ACTIVE
#   hasCoverage           integral             1     1         
#   maximumAddress        integral             32    'h0       
#   minimumAddress        integral             32    'h0       
# -------------------------------------------------------------
# 
# UVM_INFO ../../src/hvlTop/tb/test/AhbBaseTest.sv(64) @ 0: uvm_test_top [AhbWriteWithBusyToBusyTest] 
# AHB_ENV_CONFIG
# --------------------------------------------------------
# Name                   Type                  Size  Value
# --------------------------------------------------------
# ahbEnvironmentConfig   AhbEnvironmentConfig  -     @496 
#   hasScoreboard        integral              1     1    
#   hasVirtualSequencer  integral              1     1    
#   noOfMasters          integral              32    'd1  
#   noOfSlaves           integral              32    'd1  
# --------------------------------------------------------
# 
# UVM_INFO @ 0: reporter [UVMTOP] UVM testbench topology:
# -----------------------------------------------------------------------
# Name                            Type                        Size  Value
# -----------------------------------------------------------------------
# uvm_test_top                    AhbWriteWithBusyToBusyTest  -     @473 
#   ahbEnvironment                AhbEnvironment              -     @511 
#     ahbMasterAgent[0]           AhbMasterAgent              -     @520 
#       ahbMasterCoverage         AhbMasterCoverage           -     @893 
#         analysis_imp            uvm_analysis_imp            -     @900 
#       ahbMasterDriverProxy      AhbMasterDriverProxy        -     @855 
#         rsp_port                uvm_analysis_port           -     @870 
#         seq_item_port           uvm_seq_item_pull_port      -     @862 
#       ahbMasterMonitorProxy     AhbMasterMonitorProxy       -     @878 
#         ahbMasterAnalysisPort   uvm_analysis_port           -     @885 
#       ahbMasterSequencer        AhbMasterSequencer          -     @746 
#         rsp_export              uvm_analysis_export         -     @753 
#         seq_item_export         uvm_seq_item_pull_imp       -     @847 
#         arbitration_queue       array                       0     -    
#         lock_queue              array                       0     -    
#         num_last_reqs           integral                    32    'd1  
#         num_last_rsps           integral                    32    'd1  
#     ahbScoreboard               AhbScoreboard               -     @644 
#       ahbMasterAnalysisFifo[0]  uvm_tlm_analysis_fifo #(T)  -     @651 
#         analysis_export         uvm_analysis_imp            -     @690 
#         get_ap                  uvm_analysis_port           -     @682 
#         get_peek_export         uvm_get_peek_imp            -     @666 
#         put_ap                  uvm_analysis_port           -     @674 
#         put_export              uvm_put_imp                 -     @658 
#       ahbSlaveAnalysisFifo[0]   uvm_tlm_analysis_fifo #(T)  -     @698 
#         analysis_export         uvm_analysis_imp            -     @737 
#         get_ap                  uvm_analysis_port           -     @729 
#         get_peek_export         uvm_get_peek_imp            -     @713 
#         put_ap                  uvm_analysis_port           -     @721 
#         put_export              uvm_put_imp                 -     @705 
#     ahbSlaveAgent[0]            AhbSlaveAgent               -     @528 
#       ahbSlaveCoverage          AhbSlaveCoverage            -     @1063
#         analysis_imp            uvm_analysis_imp            -     @1070
#       ahbSlaveDriverProxy       AhbSlaveDriverProxy         -     @1025
#         rsp_port                uvm_analysis_port           -     @1040
#         seq_item_port           uvm_seq_item_pull_port      -     @1032
#       ahbSlaveMonitorProxy      AhbSlaveMonitorProxy        -     @1048
#         ahbSlaveAnalysisPort    uvm_analysis_port           -     @1055
#       ahbSlaveSequencer         AhbSlaveSequencer           -     @916 
#         rsp_export              uvm_analysis_export         -     @923 
#         seq_item_export         uvm_seq_item_pull_imp       -     @1017
#         arbitration_queue       array                       0     -    
#         lock_queue              array                       0     -    
#         num_last_reqs           integral                    32    'd1  
#         num_last_rsps           integral                    32    'd1  
#     ahbVirtualSequencer         AhbVirtualSequencer         -     @535 
#       rsp_export                uvm_analysis_export         -     @542 
#       seq_item_export           uvm_seq_item_pull_imp       -     @636 
#       arbitration_queue         array                       0     -    
#       lock_queue                array                       0     -    
#       num_last_reqs             integral                    32    'd1  
#       num_last_rsps             integral                    32    'd1  
# -----------------------------------------------------------------------
# 
# UVM_INFO verilog_src/questa_uvm_pkg-1.2/src/questa_uvm_pkg.sv(277) @ 0: reporter [Questa UVM] End Of Elaboration
# UVM_INFO ../../src/hvlTop/tb/test/AhbWriteWithBusyToBusyTest.sv(28) @ 0: uvm_test_top [AhbWriteWithBusyToBusyTest] AhbWriteWithBusyToBusyTest
# UVM_INFO ../../src/hvlTop/slaveAgent/AhbSlaveDriverProxy.sv(46) @ 0: uvm_test_top.ahbEnvironment.ahbSlaveAgent[0].ahbSlaveDriverProxy [AhbSlaveDriverProxy]  BEFORERESET 
#  
# UVM_INFO ../../src/hvlTop/masterAgent/AhbMasterMonitorProxy.sv(40) @ 0: uvm_test_top.ahbEnvironment.ahbMasterAgent[0].ahbMasterMonitorProxy [AhbMasterMonitorProxy] Inside the master_monitor_proxy
# UVM_INFO ../../src/hdlTop/masterAgentBFM/AhbMasterDriverBFM.sv(40) @ 15: reporter [AHB_MASTER_DRIVER_BFM] SYSTEM RESET DETECTED
# UVM_INFO ../../src/hdlTop/masterAgentBFM/AhbMasterMonitorBFM.sv(43) @ 15: reporter [AHB_MASTER_MONITOR_BFM] system reset detected
# UVM_INFO ../../src/hdlTop/slaveAgentBFM/AhbSlaveDriverBFM.sv(43) @ 15: reporter [AHB_SLAVE_DRIVER_BFM] SYSTEM RESET DETECTED
# UVM_INFO ../../src/hdlTop/slaveAgentBFM/AhbSlaveMonitorBFM.sv(44) @ 15: reporter [AHB_SLAVE_MONITOR_BFM] SYSTEM_RESET_DETECTED
# UVM_INFO ../../src/hdlTop/masterAgentBFM/AhbMasterDriverBFM.sv(43) @ 30: reporter [AHB_MASTER_DRIVER_BFM] SYSTEM RESET DEACTIVATED
# UVM_INFO ../../src/hdlTop/masterAgentBFM/AhbMasterMonitorBFM.sv(45) @ 30: reporter [AHB_MASTER_MONITOR_BFM] system reset deactivated
# UVM_INFO ../../src/hdlTop/slaveAgentBFM/AhbSlaveDriverBFM.sv(45) @ 30: reporter [AHB_SLAVE_DRIVER_BFM] SYSTEM RESET DEACTIVATED
# UVM_INFO ../../src/hdlTop/slaveAgentBFM/AhbSlaveMonitorBFM.sv(47) @ 30: reporter [AHB_SLAVE_MONITOR_BFM] SYSTEM_RESET_DEACTIVATED
# ---------------------------------------------------------
# Name                Type                 Size  Value     
# ---------------------------------------------------------
# req                 AhbSlaveTransaction  -     @1120     
#   haddr             integral             32    'h0       
#   hselx             integral             1     'b0       
#   hburst            string               0     ""        
#   hmastlock         integral             1     'h0       
#   hprot             string               0     ""        
#   hsize             string               0     ""        
#   hnonsec           integral             1     'h0       
#   hexcl             integral             1     'h0       
#   hmaster           integral             1     'd0       
#   htrans            string               0     ""        
#   hwrite            string               4     READ      
#   hreadyout         integral             1     'h0       
#   hresp             string               0     ""        
#   hexokay           integral             1     'h0       
#   hready            integral             1     'h0       
#   choosePacketData  integral             1     'd0       
#   hwdata[0]         integral             32    'he72901c7
#   hwdata[1]         integral             32    'hb326c57 
#   hwdata[2]         integral             32    'h4697affa
#   hwdata[3]         integral             32    'h79cd160d
#   hwdata[4]         integral             32    'h97066954
#   hwdata[5]         integral             32    'hdbcd7df2
#   hwdata[6]         integral             32    'hd22713d4
#   hwdata[7]         integral             32    'hce785b0c
#   hwdata[8]         integral             32    'h76482cc1
#   hwdata[9]         integral             32    'h3d1017df
#   hwdata[10]        integral             32    'h4e4c6197
#   hwdata[11]        integral             32    'h89a6724a
#   hwdata[12]        integral             32    'h29d0b709
#   hwdata[13]        integral             32    'h8646b894
#   hwdata[14]        integral             32    'h4d96cdd3
#   hwdata[15]        integral             32    'hc2fb90af
#   hwstrb[0]         integral             4     'b11      
#   hwstrb[1]         integral             4     'b100     
#   hwstrb[2]         integral             4     'b11      
#   hwstrb[3]         integral             4     'b100     
#   hwstrb[4]         integral             4     'b111     
#   hwstrb[5]         integral             4     'b1000    
#   hwstrb[6]         integral             4     'b1000    
#   hwstrb[7]         integral             4     'b111     
#   hwstrb[8]         integral             4     'b0       
#   hwstrb[9]         integral             4     'b1001    
#   hwstrb[10]        integral             4     'b1101    
#   hwstrb[11]        integral             4     'b1011    
#   hwstrb[12]        integral             4     'b0       
#   hwstrb[13]        integral             4     'b111     
#   hwstrb[14]        integral             4     'b1111    
#   hwstrb[15]        integral             4     'b1000    
#   hrdata[0]         integral             32    'hf6448064
#   hrdata[1]         integral             32    'h3c1acc25
#   hrdata[2]         integral             32    'hd905b8f0
#   hrdata[3]         integral             32    'hf3ce6b03
#   hrdata[4]         integral             32    'h31fca04f
#   hrdata[5]         integral             32    'h69d029c6
#   hrdata[6]         integral             32    'h66b8918d
#   hrdata[7]         integral             32    'hc603fd4 
#   hrdata[8]         integral             32    'hfd8206a6
#   hrdata[9]         integral             32    'h20cf8562
#   hrdata[10]        integral             32    'hfe04220e
#   hrdata[11]        integral             32    'haaf3ed07
#   hrdata[12]        integral             32    'hadfc2d52
#   hrdata[13]        integral             32    'h81529c65
#   hrdata[14]        integral             32    'h4a85725a
#   hrdata[15]        integral             32    'h8938989a
# ---------------------------------------------------------
# UVM_INFO ../../src/hvlTop/masterAgent/masterSequences/AhbMasterSequence.sv(117) @ 30: uvm_test_top.ahbEnvironment.ahbMasterAgent[0].ahbMasterSequencer@@ahbMasterSequence [AHB] req is of type: AhbMasterTransaction
# UVM_INFO ../../src/hvlTop/slaveAgent/AhbSlaveSequenceItemConverter.sv(62) @ 30: reporter [ahbSlaveSequeceItemconverterClass] After randomizing noofwaitstate = 00000000000000000000000000000000
# UVM_INFO ../../src/hvlTop/slaveAgent/AhbSlaveSequenceItemConverter.sv(92) @ 30: reporter [ahbSlaveSequeceItemconverterClass] -------------------------------------------------------------
# UVM_INFO ../../src/hdlTop/slaveAgentBFM/AhbSlaveDriverBFM.sv(49) @ 30: reporter [AHB_SLAVE_DRIVER_BFM] DRIVE TO BFM TASK
# UVM_INFO ../../src/hvlTop/masterAgent/AhbMasterDriverProxy.sv(54) @ 30: uvm_test_top.ahbEnvironment.ahbMasterAgent[0].ahbMasterDriverProxy [AhbMasterDriverProxy] REQ-MASTERTX 
#  -----------------------------------------------------------------------------------
# Name                      Type                  Size  Value                        
# -----------------------------------------------------------------------------------
# req                       AhbMasterTransaction  -     @1124                        
#   haddr                   integral              32    'h37415170                   
#   hselx                   integral              1     'b1                          
#   hburst                  string                5     INCR8                        
#   hmastlock               integral              1     'h1                          
#   hprot                   string                29    PRIVILEGED_SECURE_INSTRUCTION
#   hsize                   string                4     WORD                         
#   hnonsec                 integral              1     'h1                          
#   hexcl                   integral              1     'h0                          
#   hmaster                 integral              1     1                            
#   htrans                  string                6     NONSEQ                       
#   hwrite                  string                5     WRITE                        
#   hreadyout               integral              1     'h0                          
#   hresp                   string                0     ""                           
#   hexokay                 integral              1     'h0                          
#   hready                  integral              1     'h0                          
#   noOfwaitStatesDetected  integral              32    'h0                          
#   hwdata[0]               integral              32    'he2330498                   
#   hwdata[1]               integral              32    'hbb9d00be                   
#   hwdata[2]               integral              32    'h4c78ce0                    
#   hwdata[3]               integral              32    'h8b220b6c                   
#   hwdata[4]               integral              32    'ha06a1163                   
#   hwdata[5]               integral              32    'hfe59b02                    
#   hwdata[6]               integral              32    'hd228d841                   
#   hwdata[7]               integral              32    'h4f25c22                    
#   hwstrb[0]               integral              4     'b1111                       
#   hwstrb[1]               integral              4     'b1111                       
#   hwstrb[2]               integral              4     'b1111                       
#   hwstrb[3]               integral              4     'b1111                       
#   hwstrb[4]               integral              4     'b1111                       
#   hwstrb[5]               integral              4     'b1111                       
#   hwstrb[6]               integral              4     'b1111                       
#   hwstrb[7]               integral              4     'b1111                       
#   busyControl[0]          integral              1     'h0                          
#   busyControl[1]          integral              1     'h1                          
#   busyControl[2]          integral              1     'h0                          
#   busyControl[3]          integral              1     'h1                          
#   busyControl[4]          integral              1     'h0                          
#   busyControl[5]          integral              1     'h1                          
#   busyControl[6]          integral              1     'h0                          
#   busyControl[7]          integral              1     'h0                          
# -----------------------------------------------------------------------------------
# 
# UVM_INFO ../../src/hdlTop/masterAgentBFM/AhbMasterDriverBFM.sv(47) @ 30: reporter [AHB_MASTER_DRIVER_BFM] DRIVE TO BFM TASK
# UVM_INFO ../../src/hdlTop/slaveAgentBFM/AhbSlaveDriverBFM.sv(52) @ 30: reporter [AHB_SLAVE_DRIVER_BFM] AFTERHSELASSERTED HTRANSFER = 2
# UVM_INFO ../../src/hdlTop/slaveAgentBFM/AhbSlaveDriverBFM.sv(91) @ 30: reporter [AHB_SLAVE_DRIVER_BFM] STARTEDBURSTTRANSFERTASK
# UVM_INFO ../../src/hdlTop/slaveAgentBFM/AhbSlaveDriverBFM.sv(108) @ 30: reporter [AHB_SLAVE_DRIVER_BFM] Busy = 0
# UVM_INFO ../../src/hdlTop/masterAgentBFM/AhbMasterDriverBFM.sv(153) @ 50: reporter [AHB_MASTER_DRIVER_BFM] Driving BUSY Transfer at Address: 37415170
# &&&&values inside master monitor proxy '{haddr:927027568, hselx:1, hburst:INCR8, hmastlock:1, hprot:PRIVILEGED_SECURE_INSTRUCTION, hsize:WORD, hnonsec:x, hexcl:x, hmaster:x, htrans:NONSEQ, hwdata:'{0, 0, 0, 0, 0, 0, 0, 0, 0, 0, 0, 0, 0, 0, 0, 0, x}, hwstrb:'{0, 0, 0, 0, 0, 0, 0, 0, 0, 0, 0, 0, 0, 0, 0, 0, 15}, hwrite:WRITE, hrdata:'{x, x, x, x, x, x, x, x, x, x, x, x, x, x, x, x, x}, hreadyout:x, hresp:x, hexokay:x, hready:1, noOfWaitStates:0, noOfBusyStates:0, busyControl:0}&&&
# UVM_INFO ../../src/hvlTop/masterAgent/AhbMasterMonitorProxy.sv(57) @ 50: uvm_test_top.ahbEnvironment.ahbMasterAgent[0].ahbMasterMonitorProxy [AhbMasterMonitorProxy] Sending packet via analysis_port: , 
#  -----------------------------------------------------------------------------------
# Name                      Type                  Size  Value                        
# -----------------------------------------------------------------------------------
# ahbMasterPacket           AhbMasterTransaction  -     @1200                        
#   haddr                   integral              32    'h37415170                   
#   hselx                   integral              1     'b1                          
#   hburst                  string                5     INCR8                        
#   hmastlock               integral              1     'h1                          
#   hprot                   string                29    PRIVILEGED_SECURE_INSTRUCTION
#   hsize                   string                4     WORD                         
#   hnonsec                 integral              1     'h0                          
#   hexcl                   integral              1     'h0                          
#   hmaster                 integral              1     'd0                          
#   htrans                  string                6     NONSEQ                       
#   hwrite                  string                5     WRITE                        
#   hreadyout               integral              1     'h0                          
#   hresp                   string                0     ""                           
#   hexokay                 integral              1     'h0                          
#   hready                  integral              1     'h1                          
#   noOfwaitStatesDetected  integral              32    'h0                          
# -----------------------------------------------------------------------------------
# 
# UVM_INFO ../../src/hvlTop/masterAgent/AhbMasterCoverage.sv(118) @ 50: uvm_test_top.ahbEnvironment.ahbMasterAgent[0].ahbMasterCoverage [AhbMasterCoverage] Before calling SAMPLE METHOD
# UVM_INFO ../../src/hvlTop/masterAgent/AhbMasterCoverage.sv(120) @ 50: uvm_test_top.ahbEnvironment.ahbMasterAgent[0].ahbMasterCoverage [AhbMasterCoverage] After calling SAMPLE METHOD
# UVM_INFO ../../src/hdlTop/slaveAgentBFM/AhbSlaveDriverBFM.sv(145) @ 50: reporter [AHB_SLAVE_DRIVER_BFM] Bus is now out of wait cycles
# &&&&values inside monitor proxy '{haddr:927027568, hselx:1, hburst:INCR8, hmastlock:x, hprot:PRIVILEGED_SECURE_INSTRUCTION, hsize:WORD, hnonsec:1, hexcl:x, hmaster:x, htrans:NONSEQ, hwdata:'{0, 0, 0, 0, 0, 0, 0, 0, 0, 0, 0, 0, 0, 0, 0, 0, x}, hwstrb:'{0, 0, 0, 0, 0, 0, 0, 0, 0, 0, 0, 0, 0, 0, 0, 0, 15}, hwrite:WRITE, hrdata:'{x, x, x, x, x, x, x, x, x, x, x, x, x, x, x, x, x}, hreadyout:1, hresp:x, hexokay:x, hready:x, noOfWaitStates:0, noOfBusyStates:0, busyControl:0}&&&
# UVM_INFO ../../src/hvlTop/slaveAgent/AhbSlaveSequenceItemConverter.sv(143) @ 50: reporter [ahbSlaveSequeceItemconverterClass] After randomizing noofwaitstate = 00000000000000000000000000000000
# UVM_INFO ../../src/hvlTop/slaveAgent/AhbSlaveSequenceItemConverter.sv(171) @ 50: reporter [ahbSlaveSequeceItemconverterClass] -------------------------------------------------------------
# UVM_INFO ../../src/hvlTop/slaveAgent/AhbSlaveMonitorProxy.sv(60) @ 50: uvm_test_top.ahbEnvironment.ahbSlaveAgent[0].ahbSlaveMonitorProxy [AhbSlaveMonitorProxy] Sending packet via analysis_port: , 
#  ----------------------------------------------------------------------------
# Name                Type                 Size  Value                        
# ----------------------------------------------------------------------------
# slave Packet        AhbSlaveTransaction  -     @1204                        
#   haddr             integral             32    'h37415170                   
#   hselx             integral             1     'b1                          
#   hburst            string               5     INCR8                        
#   hmastlock         integral             1     'h0                          
#   hprot             string               29    PRIVILEGED_SECURE_INSTRUCTION
#   hsize             string               4     WORD                         
#   hnonsec           integral             1     'h1                          
#   hexcl             integral             1     'h0                          
#   hmaster           integral             1     'd0                          
#   htrans            string               6     NONSEQ                       
#   hwrite            string               5     WRITE                        
#   hreadyout         integral             1     'h1                          
#   hresp             string               0     ""                           
#   hexokay           integral             1     'h0                          
#   hready            integral             1     'h0                          
#   choosePacketData  integral             1     'd0                          
# ----------------------------------------------------------------------------
# 
# UVM_INFO ../../src/hvlTop/slaveAgent/AhbSlaveCoverage.sv(39) @ 50: uvm_test_top.ahbEnvironment.ahbSlaveAgent[0].ahbSlaveCoverage [AhbSlaveCoverage] AHB SLAVE COVERAGE
# UVM_INFO ../../src/hvlTop/environment/AhbScoreboard.sv(76) @ 50: uvm_test_top.ahbEnvironment.ahbScoreboard [AhbScoreboard] after calling master's analysis fifo get method
# UVM_INFO ../../src/hvlTop/environment/AhbScoreboard.sv(82) @ 50: uvm_test_top.ahbEnvironment.ahbScoreboard [AhbScoreboard] after calling slave's analysis fifo get method
# UVM_INFO ../../src/hvlTop/environment/AhbScoreboard.sv(87) @ 50: uvm_test_top.ahbEnvironment.ahbScoreboard [AhbScoreboard] --
# -----------------------------------------------SCOREBOARD COMPARISIONS--------------------------------------------------
# UVM_INFO ../../src/hvlTop/environment/AhbScoreboard.sv(89) @ 50: uvm_test_top.ahbEnvironment.ahbScoreboard [AhbScoreboard] ahb HWDATA from master and slave is equal
# UVM_INFO ../../src/hvlTop/environment/AhbScoreboard.sv(91) @ 50: uvm_test_top.ahbEnvironment.ahbScoreboard [SB  HWDATA MATCHED] Master HWDATA =  and Slave HWDATA = 
# UVM_INFO ../../src/hvlTop/environment/AhbScoreboard.sv(102) @ 50: uvm_test_top.ahbEnvironment.ahbScoreboard [AhbScoreboard] ahb HADDR from master and slave is equal
# UVM_INFO ../../src/hvlTop/environment/AhbScoreboard.sv(104) @ 50: uvm_test_top.ahbEnvironment.ahbScoreboard [SB HADDR MATCH] Master HADDR = 'h37415170 and Slave HADDR = 'h37415170
# UVM_INFO ../../src/hvlTop/environment/AhbScoreboard.sv(116) @ 50: uvm_test_top.ahbEnvironment.ahbScoreboard [AhbScoreboard] ahb HWRITE from master and slave is equal
# UVM_INFO ../../src/hvlTop/environment/AhbScoreboard.sv(118) @ 50: uvm_test_top.ahbEnvironment.ahbScoreboard [SB HWRITE MATCH] Master HWRITE = 'h1 and Slave hwrite = 'h1
# UVM_INFO ../../src/hvlTop/environment/AhbScoreboard.sv(130) @ 50: uvm_test_top.ahbEnvironment.ahbScoreboard [AhbScoreboard] --
# -----------------------------------------------END OF SCOREBOARD COMPARISIONS---------------------------------------
# ** Info: Hwstrb valid
#    Time: 50 ns Started: 50 ns  Scope: HdlTop.ahbMasterAgentBFM.ahbMasterMonitorBFM.ahb_assert File: ../../src/hdlTop/masterAgentBFM/AhbMasterAssertion.sv Line: 161
# ** Info: Address stability during waited transfer verified.
#    Time: 50 ns Started: 50 ns  Scope: HdlTop.ahbMasterAgentBFM.ahbMasterMonitorBFM.ahb_assert File: ../../src/hdlTop/masterAgentBFM/AhbMasterAssertion.sv Line: 134
# ** Info: HADDR is aligned based on HSIZE
#    Time: 50 ns Started: 50 ns  Scope: HdlTop.ahbMasterAgentBFM.ahbMasterMonitorBFM.ahb_assert File: ../../src/hdlTop/masterAgentBFM/AhbMasterAssertion.sv Line: 78
# ** Info: HMASTLOCK is asserted during a locked transfer
#    Time: 50 ns Started: 50 ns  Scope: HdlTop.ahbMasterAgentBFM.ahbMasterMonitorBFM.ahb_assert File: ../../src/hdlTop/masterAgentBFM/AhbMasterAssertion.sv Line: 87
# ** Info: HSIZE matches the data width supported by the slave!
#    Time: 50 ns Started: 50 ns  Scope: HdlTop.ahbMasterAgentBFM.ahbMasterMonitorBFM.ahb_assert File: ../../src/hdlTop/masterAgentBFM/AhbMasterAssertion.sv Line: 143
# ** Info: Valid burst type!
#    Time: 50 ns Started: 50 ns  Scope: HdlTop.ahbMasterAgentBFM.ahbMasterMonitorBFM.ahb_assert File: ../../src/hdlTop/masterAgentBFM/AhbMasterAssertion.sv Line: 152
# ** Info: Address Aligned with size
#    Time: 50 ns Started: 50 ns  Scope: HdlTop.ahbMasterAgentBFM.ahbMasterMonitorBFM.ahb_cover File: ../../src/hdlTop/masterAgentBFM/AhbMasterCoverProperty.sv Line: 58
# ** Info: Hwstrb is valid
#    Time: 50 ns Started: 50 ns  Scope: HdlTop.ahbMasterAgentBFM.ahbMasterMonitorBFM.ahb_cover File: ../../src/hdlTop/masterAgentBFM/AhbMasterCoverProperty.sv Line: 98
# ** Info: Transition from IDLE to NON-SEQ passed
#    Time: 50 ns Started: 30 ns  Scope: HdlTop.ahbMasterAgentBFM.ahbMasterMonitorBFM.ahb_assert File: ../../src/hdlTop/masterAgentBFM/AhbMasterAssertion.sv Line: 125
# &&&&values inside master monitor proxy '{haddr:927027572, hselx:1, hburst:INCR8, hmastlock:1, hprot:PRIVILEGED_SECURE_INSTRUCTION, hsize:WORD, hnonsec:x, hexcl:x, hmaster:x, htrans:BUSY, hwdata:'{0, 0, 0, 0, 0, 0, 0, 0, 0, 0, 0, 0, 0, 0, 0, 0, 3794994328}, hwstrb:'{0, 0, 0, 0, 0, 0, 0, 0, 0, 0, 0, 0, 0, 0, 0, 0, 15}, hwrite:WRITE, hrdata:'{x, x, x, x, x, x, x, x, x, x, x, x, x, x, x, x, x}, hreadyout:x, hresp:OKAY, hexokay:x, hready:1, noOfWaitStates:0, noOfBusyStates:0, busyControl:0}&&&
# UVM_INFO ../../src/hvlTop/masterAgent/AhbMasterMonitorProxy.sv(57) @ 70: uvm_test_top.ahbEnvironment.ahbMasterAgent[0].ahbMasterMonitorProxy [AhbMasterMonitorProxy] Sending packet via analysis_port: , 
#  -----------------------------------------------------------------------------------
# Name                      Type                  Size  Value                        
# -----------------------------------------------------------------------------------
# ahbMasterPacket           AhbMasterTransaction  -     @1208                        
#   haddr                   integral              32    'h37415174                   
#   hselx                   integral              1     'b1                          
#   hburst                  string                5     INCR8                        
#   hmastlock               integral              1     'h1                          
#   hprot                   string                29    PRIVILEGED_SECURE_INSTRUCTION
#   hsize                   string                4     WORD                         
#   hnonsec                 integral              1     'h0                          
#   hexcl                   integral              1     'h0                          
#   hmaster                 integral              1     'd0                          
#   htrans                  string                4     BUSY                         
#   hwrite                  string                5     WRITE                        
#   hreadyout               integral              1     'h0                          
#   hresp                   string                4     OKAY                         
#   hexokay                 integral              1     'h0                          
#   hready                  integral              1     'h1                          
#   noOfwaitStatesDetected  integral              32    'h0                          
#   hwdata[0]               integral              32    'he2330498                   
#   hwstrb[0]               integral              4     'b1111                       
# -----------------------------------------------------------------------------------
# 
# UVM_INFO ../../src/hvlTop/masterAgent/AhbMasterCoverage.sv(118) @ 70: uvm_test_top.ahbEnvironment.ahbMasterAgent[0].ahbMasterCoverage [AhbMasterCoverage] Before calling SAMPLE METHOD
# UVM_INFO ../../src/hvlTop/masterAgent/AhbMasterCoverage.sv(120) @ 70: uvm_test_top.ahbEnvironment.ahbMasterAgent[0].ahbMasterCoverage [AhbMasterCoverage] After calling SAMPLE METHOD
# UVM_INFO ../../src/hdlTop/slaveAgentBFM/AhbSlaveDriverBFM.sv(108) @ 70: reporter [AHB_SLAVE_DRIVER_BFM] Busy = 0
# &&&&values inside monitor proxy '{haddr:927027572, hselx:1, hburst:INCR8, hmastlock:x, hprot:PRIVILEGED_SECURE_INSTRUCTION, hsize:WORD, hnonsec:1, hexcl:x, hmaster:x, htrans:BUSY, hwdata:'{0, 0, 0, 0, 0, 0, 0, 0, 0, 0, 0, 0, 0, 0, 0, 0, 3794994328}, hwstrb:'{0, 0, 0, 0, 0, 0, 0, 0, 0, 0, 0, 0, 0, 0, 0, 0, 15}, hwrite:WRITE, hrdata:'{x, x, x, x, x, x, x, x, x, x, x, x, x, x, x, x, x}, hreadyout:1, hresp:OKAY, hexokay:x, hready:x, noOfWaitStates:0, noOfBusyStates:0, busyControl:0}&&&
# UVM_INFO ../../src/hvlTop/slaveAgent/AhbSlaveSequenceItemConverter.sv(143) @ 70: reporter [ahbSlaveSequeceItemconverterClass] After randomizing noofwaitstate = 00000000000000000000000000000000
# UVM_INFO ../../src/hvlTop/slaveAgent/AhbSlaveSequenceItemConverter.sv(171) @ 70: reporter [ahbSlaveSequeceItemconverterClass] -------------------------------------------------------------
# UVM_INFO ../../src/hvlTop/slaveAgent/AhbSlaveMonitorProxy.sv(60) @ 70: uvm_test_top.ahbEnvironment.ahbSlaveAgent[0].ahbSlaveMonitorProxy [AhbSlaveMonitorProxy] Sending packet via analysis_port: , 
#  ----------------------------------------------------------------------------
# Name                Type                 Size  Value                        
# ----------------------------------------------------------------------------
# slave Packet        AhbSlaveTransaction  -     @1212                        
#   haddr             integral             32    'h37415174                   
#   hselx             integral             1     'b1                          
#   hburst            string               5     INCR8                        
#   hmastlock         integral             1     'h0                          
#   hprot             string               29    PRIVILEGED_SECURE_INSTRUCTION
#   hsize             string               4     WORD                         
#   hnonsec           integral             1     'h1                          
#   hexcl             integral             1     'h0                          
#   hmaster           integral             1     'd0                          
#   htrans            string               4     BUSY                         
#   hwrite            string               5     WRITE                        
#   hreadyout         integral             1     'h1                          
#   hresp             string               4     OKAY                         
#   hexokay           integral             1     'h0                          
#   hready            integral             1     'h0                          
#   choosePacketData  integral             1     'd0                          
#   hwdata[0]         integral             32    'he2330498                   
#   hwstrb[0]         integral             4     'b1111                       
# ----------------------------------------------------------------------------
# 
# UVM_INFO ../../src/hvlTop/slaveAgent/AhbSlaveCoverage.sv(39) @ 70: uvm_test_top.ahbEnvironment.ahbSlaveAgent[0].ahbSlaveCoverage [AhbSlaveCoverage] AHB SLAVE COVERAGE
# UVM_INFO ../../src/hvlTop/environment/AhbScoreboard.sv(76) @ 70: uvm_test_top.ahbEnvironment.ahbScoreboard [AhbScoreboard] after calling master's analysis fifo get method
# UVM_INFO ../../src/hvlTop/environment/AhbScoreboard.sv(82) @ 70: uvm_test_top.ahbEnvironment.ahbScoreboard [AhbScoreboard] after calling slave's analysis fifo get method
# UVM_INFO ../../src/hvlTop/environment/AhbScoreboard.sv(87) @ 70: uvm_test_top.ahbEnvironment.ahbScoreboard [AhbScoreboard] --
# -----------------------------------------------SCOREBOARD COMPARISIONS--------------------------------------------------
# UVM_INFO ../../src/hvlTop/environment/AhbScoreboard.sv(89) @ 70: uvm_test_top.ahbEnvironment.ahbScoreboard [AhbScoreboard] ahb HWDATA from master and slave is equal
# UVM_INFO ../../src/hvlTop/environment/AhbScoreboard.sv(91) @ 70: uvm_test_top.ahbEnvironment.ahbScoreboard [SB  HWDATA MATCHED] Master HWDATA = 3794994328 and Slave HWDATA = 3794994328
# UVM_INFO ../../src/hvlTop/environment/AhbScoreboard.sv(102) @ 70: uvm_test_top.ahbEnvironment.ahbScoreboard [AhbScoreboard] ahb HADDR from master and slave is equal
# UVM_INFO ../../src/hvlTop/environment/AhbScoreboard.sv(104) @ 70: uvm_test_top.ahbEnvironment.ahbScoreboard [SB HADDR MATCH] Master HADDR = 'h37415174 and Slave HADDR = 'h37415174
# UVM_INFO ../../src/hvlTop/environment/AhbScoreboard.sv(116) @ 70: uvm_test_top.ahbEnvironment.ahbScoreboard [AhbScoreboard] ahb HWRITE from master and slave is equal
# UVM_INFO ../../src/hvlTop/environment/AhbScoreboard.sv(118) @ 70: uvm_test_top.ahbEnvironment.ahbScoreboard [SB HWRITE MATCH] Master HWRITE = 'h1 and Slave hwrite = 'h1
# UVM_INFO ../../src/hvlTop/environment/AhbScoreboard.sv(130) @ 70: uvm_test_top.ahbEnvironment.ahbScoreboard [AhbScoreboard] --
# -----------------------------------------------END OF SCOREBOARD COMPARISIONS---------------------------------------
# ** Info: HSIZE matches the data width supported by the slave!
#    Time: 70 ns Started: 70 ns  Scope: HdlTop.ahbMasterAgentBFM.ahbMasterMonitorBFM.ahb_assert File: ../../src/hdlTop/masterAgentBFM/AhbMasterAssertion.sv Line: 143
# ** Info: Valid burst type!
#    Time: 70 ns Started: 70 ns  Scope: HdlTop.ahbMasterAgentBFM.ahbMasterMonitorBFM.ahb_assert File: ../../src/hdlTop/masterAgentBFM/AhbMasterAssertion.sv Line: 152
# ** Info: HMASTLOCK is asserted during a locked transfer
#    Time: 70 ns Started: 70 ns  Scope: HdlTop.ahbMasterAgentBFM.ahbMasterMonitorBFM.ahb_assert File: ../../src/hdlTop/masterAgentBFM/AhbMasterAssertion.sv Line: 87
# ** Info: HADDR is aligned based on HSIZE
#    Time: 70 ns Started: 70 ns  Scope: HdlTop.ahbMasterAgentBFM.ahbMasterMonitorBFM.ahb_assert File: ../../src/hdlTop/masterAgentBFM/AhbMasterAssertion.sv Line: 78
# ** Info: Valid Write Transfer
#    Time: 70 ns Started: 50 ns  Scope: HdlTop.ahbMasterAgentBFM.ahbMasterMonitorBFM.ahb_cover File: ../../src/hdlTop/masterAgentBFM/AhbMasterCoverProperty.sv Line: 49
# ** Info: Address Aligned with size
#    Time: 70 ns Started: 70 ns  Scope: HdlTop.ahbMasterAgentBFM.ahbMasterMonitorBFM.ahb_cover File: ../../src/hdlTop/masterAgentBFM/AhbMasterCoverProperty.sv Line: 58
# ** Info: HWDATA is Valid When HWRITE IS HIGH
#    Time: 70 ns Started: 50 ns  Scope: HdlTop.ahbMasterAgentBFM.ahbMasterMonitorBFM.ahb_assert File: ../../src/hdlTop/masterAgentBFM/AhbMasterAssertion.sv Line: 60
# ** Info: HTRANS is Valid
#    Time: 70 ns Started: 50 ns  Scope: HdlTop.ahbMasterAgentBFM.ahbMasterMonitorBFM.ahb_assert File: ../../src/hdlTop/masterAgentBFM/AhbMasterAssertion.sv Line: 69
# ** Info: Hwstrb valid
#    Time: 70 ns Started: 70 ns  Scope: HdlTop.ahbMasterAgentBFM.ahbMasterMonitorBFM.ahb_assert File: ../../src/hdlTop/masterAgentBFM/AhbMasterAssertion.sv Line: 161
# ** Info: HRESP is OKAY for valid transactions!
#    Time: 70 ns Started: 50 ns  Scope: HdlTop.ahbSlaveAgentBFM.ahbSlaveMonitorBFM.ahb_assert File: ../../src/hdlTop/slaveAgentBFM/AhbSlaveAssertion.sv Line: 52
# ** Info: Hresp is valid
#    Time: 70 ns Started: 50 ns  Scope: HdlTop.ahbSlaveAgentBFM.ahbSlaveMonitorBFM.ahb_cover File: ../../src/hdlTop/slaveAgentBFM/AhbSlaveCoverProperty.sv Line: 57
# &&&&values inside master monitor proxy '{haddr:927027572, hselx:1, hburst:INCR8, hmastlock:1, hprot:PRIVILEGED_SECURE_INSTRUCTION, hsize:WORD, hnonsec:x, hexcl:x, hmaster:x, htrans:BUSY, hwdata:'{0, 0, 0, 0, 0, 0, 0, 0, 0, 0, 0, 0, 0, 0, 0, 0, 3794994328}, hwstrb:'{0, 0, 0, 0, 0, 0, 0, 0, 0, 0, 0, 0, 0, 0, 0, 0, 15}, hwrite:WRITE, hrdata:'{x, x, x, x, x, x, x, x, x, x, x, x, x, x, x, x, x}, hreadyout:x, hresp:OKAY, hexokay:x, hready:1, noOfWaitStates:0, noOfBusyStates:0, busyControl:0}&&&
# UVM_INFO ../../src/hvlTop/masterAgent/AhbMasterMonitorProxy.sv(57) @ 90: uvm_test_top.ahbEnvironment.ahbMasterAgent[0].ahbMasterMonitorProxy [AhbMasterMonitorProxy] Sending packet via analysis_port: , 
#  -----------------------------------------------------------------------------------
# Name                      Type                  Size  Value                        
# -----------------------------------------------------------------------------------
# ahbMasterPacket           AhbMasterTransaction  -     @1216                        
#   haddr                   integral              32    'h37415174                   
#   hselx                   integral              1     'b1                          
#   hburst                  string                5     INCR8                        
#   hmastlock               integral              1     'h1                          
#   hprot                   string                29    PRIVILEGED_SECURE_INSTRUCTION
#   hsize                   string                4     WORD                         
#   hnonsec                 integral              1     'h0                          
#   hexcl                   integral              1     'h0                          
#   hmaster                 integral              1     'd0                          
#   htrans                  string                4     BUSY                         
#   hwrite                  string                5     WRITE                        
#   hreadyout               integral              1     'h0                          
#   hresp                   string                4     OKAY                         
#   hexokay                 integral              1     'h0                          
#   hready                  integral              1     'h1                          
#   noOfwaitStatesDetected  integral              32    'h0                          
#   hwdata[0]               integral              32    'he2330498                   
#   hwstrb[0]               integral              4     'b1111                       
# -----------------------------------------------------------------------------------
# 
# UVM_INFO ../../src/hvlTop/masterAgent/AhbMasterCoverage.sv(118) @ 90: uvm_test_top.ahbEnvironment.ahbMasterAgent[0].ahbMasterCoverage [AhbMasterCoverage] Before calling SAMPLE METHOD
# UVM_INFO ../../src/hvlTop/masterAgent/AhbMasterCoverage.sv(120) @ 90: uvm_test_top.ahbEnvironment.ahbMasterAgent[0].ahbMasterCoverage [AhbMasterCoverage] After calling SAMPLE METHOD
# UVM_INFO ../../src/hdlTop/slaveAgentBFM/AhbSlaveDriverBFM.sv(108) @ 90: reporter [AHB_SLAVE_DRIVER_BFM] Busy = 0
# &&&&values inside monitor proxy '{haddr:927027572, hselx:1, hburst:INCR8, hmastlock:x, hprot:PRIVILEGED_SECURE_INSTRUCTION, hsize:WORD, hnonsec:1, hexcl:x, hmaster:x, htrans:BUSY, hwdata:'{0, 0, 0, 0, 0, 0, 0, 0, 0, 0, 0, 0, 0, 0, 0, 0, 3794994328}, hwstrb:'{0, 0, 0, 0, 0, 0, 0, 0, 0, 0, 0, 0, 0, 0, 0, 0, 15}, hwrite:WRITE, hrdata:'{x, x, x, x, x, x, x, x, x, x, x, x, x, x, x, x, x}, hreadyout:1, hresp:OKAY, hexokay:x, hready:x, noOfWaitStates:0, noOfBusyStates:0, busyControl:0}&&&
# UVM_INFO ../../src/hvlTop/slaveAgent/AhbSlaveSequenceItemConverter.sv(143) @ 90: reporter [ahbSlaveSequeceItemconverterClass] After randomizing noofwaitstate = 00000000000000000000000000000000
# UVM_INFO ../../src/hvlTop/slaveAgent/AhbSlaveSequenceItemConverter.sv(171) @ 90: reporter [ahbSlaveSequeceItemconverterClass] -------------------------------------------------------------
# UVM_INFO ../../src/hvlTop/slaveAgent/AhbSlaveMonitorProxy.sv(60) @ 90: uvm_test_top.ahbEnvironment.ahbSlaveAgent[0].ahbSlaveMonitorProxy [AhbSlaveMonitorProxy] Sending packet via analysis_port: , 
#  ----------------------------------------------------------------------------
# Name                Type                 Size  Value                        
# ----------------------------------------------------------------------------
# slave Packet        AhbSlaveTransaction  -     @1220                        
#   haddr             integral             32    'h37415174                   
#   hselx             integral             1     'b1                          
#   hburst            string               5     INCR8                        
#   hmastlock         integral             1     'h0                          
#   hprot             string               29    PRIVILEGED_SECURE_INSTRUCTION
#   hsize             string               4     WORD                         
#   hnonsec           integral             1     'h1                          
#   hexcl             integral             1     'h0                          
#   hmaster           integral             1     'd0                          
#   htrans            string               4     BUSY                         
#   hwrite            string               5     WRITE                        
#   hreadyout         integral             1     'h1                          
#   hresp             string               4     OKAY                         
#   hexokay           integral             1     'h0                          
#   hready            integral             1     'h0                          
#   choosePacketData  integral             1     'd0                          
#   hwdata[0]         integral             32    'he2330498                   
#   hwstrb[0]         integral             4     'b1111                       
# ----------------------------------------------------------------------------
# 
# UVM_INFO ../../src/hvlTop/slaveAgent/AhbSlaveCoverage.sv(39) @ 90: uvm_test_top.ahbEnvironment.ahbSlaveAgent[0].ahbSlaveCoverage [AhbSlaveCoverage] AHB SLAVE COVERAGE
# UVM_INFO ../../src/hvlTop/environment/AhbScoreboard.sv(76) @ 90: uvm_test_top.ahbEnvironment.ahbScoreboard [AhbScoreboard] after calling master's analysis fifo get method
# UVM_INFO ../../src/hvlTop/environment/AhbScoreboard.sv(82) @ 90: uvm_test_top.ahbEnvironment.ahbScoreboard [AhbScoreboard] after calling slave's analysis fifo get method
# UVM_INFO ../../src/hvlTop/environment/AhbScoreboard.sv(87) @ 90: uvm_test_top.ahbEnvironment.ahbScoreboard [AhbScoreboard] --
# -----------------------------------------------SCOREBOARD COMPARISIONS--------------------------------------------------
# UVM_INFO ../../src/hvlTop/environment/AhbScoreboard.sv(89) @ 90: uvm_test_top.ahbEnvironment.ahbScoreboard [AhbScoreboard] ahb HWDATA from master and slave is equal
# UVM_INFO ../../src/hvlTop/environment/AhbScoreboard.sv(91) @ 90: uvm_test_top.ahbEnvironment.ahbScoreboard [SB  HWDATA MATCHED] Master HWDATA = 3794994328 and Slave HWDATA = 3794994328
# UVM_INFO ../../src/hvlTop/environment/AhbScoreboard.sv(102) @ 90: uvm_test_top.ahbEnvironment.ahbScoreboard [AhbScoreboard] ahb HADDR from master and slave is equal
# UVM_INFO ../../src/hvlTop/environment/AhbScoreboard.sv(104) @ 90: uvm_test_top.ahbEnvironment.ahbScoreboard [SB HADDR MATCH] Master HADDR = 'h37415174 and Slave HADDR = 'h37415174
# UVM_INFO ../../src/hvlTop/environment/AhbScoreboard.sv(116) @ 90: uvm_test_top.ahbEnvironment.ahbScoreboard [AhbScoreboard] ahb HWRITE from master and slave is equal
# UVM_INFO ../../src/hvlTop/environment/AhbScoreboard.sv(118) @ 90: uvm_test_top.ahbEnvironment.ahbScoreboard [SB HWRITE MATCH] Master HWRITE = 'h1 and Slave hwrite = 'h1
# UVM_INFO ../../src/hvlTop/environment/AhbScoreboard.sv(130) @ 90: uvm_test_top.ahbEnvironment.ahbScoreboard [AhbScoreboard] --
# -----------------------------------------------END OF SCOREBOARD COMPARISIONS---------------------------------------
# ** Info: Valid burst type!
#    Time: 90 ns Started: 90 ns  Scope: HdlTop.ahbMasterAgentBFM.ahbMasterMonitorBFM.ahb_assert File: ../../src/hdlTop/masterAgentBFM/AhbMasterAssertion.sv Line: 152
# ** Info: HMASTLOCK is asserted during a locked transfer
#    Time: 90 ns Started: 90 ns  Scope: HdlTop.ahbMasterAgentBFM.ahbMasterMonitorBFM.ahb_assert File: ../../src/hdlTop/masterAgentBFM/AhbMasterAssertion.sv Line: 87
# ** Info: HADDR is aligned based on HSIZE
#    Time: 90 ns Started: 90 ns  Scope: HdlTop.ahbMasterAgentBFM.ahbMasterMonitorBFM.ahb_assert File: ../../src/hdlTop/masterAgentBFM/AhbMasterAssertion.sv Line: 78
# ** Info: Address Aligned with size
#    Time: 90 ns Started: 90 ns  Scope: HdlTop.ahbMasterAgentBFM.ahbMasterMonitorBFM.ahb_cover File: ../../src/hdlTop/masterAgentBFM/AhbMasterCoverProperty.sv Line: 58
# ** Info: HWDATA is Valid When HWRITE IS HIGH
#    Time: 90 ns Started: 70 ns  Scope: HdlTop.ahbMasterAgentBFM.ahbMasterMonitorBFM.ahb_assert File: ../../src/hdlTop/masterAgentBFM/AhbMasterAssertion.sv Line: 60
# ** Info: HSIZE matches the data width supported by the slave!
#    Time: 90 ns Started: 90 ns  Scope: HdlTop.ahbMasterAgentBFM.ahbMasterMonitorBFM.ahb_assert File: ../../src/hdlTop/masterAgentBFM/AhbMasterAssertion.sv Line: 143
# ** Info: Hwstrb valid
#    Time: 90 ns Started: 90 ns  Scope: HdlTop.ahbMasterAgentBFM.ahbMasterMonitorBFM.ahb_assert File: ../../src/hdlTop/masterAgentBFM/AhbMasterAssertion.sv Line: 161
# ** Info: HRESP is OKAY for valid transactions!
#    Time: 90 ns Started: 70 ns  Scope: HdlTop.ahbSlaveAgentBFM.ahbSlaveMonitorBFM.ahb_assert File: ../../src/hdlTop/slaveAgentBFM/AhbSlaveAssertion.sv Line: 52
# ** Error: Transition from BUSY to SEQ failed: and address is not hold
#    Time: 90 ns Started: 70 ns  Scope: HdlTop.ahbMasterAgentBFM.ahbMasterMonitorBFM.ahb_assert File: ../../src/hdlTop/masterAgentBFM/AhbMasterAssertion.sv Line: 118 Expr: htrans==SEQ
# ** Info: Hresp is valid
#    Time: 90 ns Started: 70 ns  Scope: HdlTop.ahbSlaveAgentBFM.ahbSlaveMonitorBFM.ahb_cover File: ../../src/hdlTop/slaveAgentBFM/AhbSlaveCoverProperty.sv Line: 57
# &&&&values inside master monitor proxy '{haddr:927027572, hselx:1, hburst:INCR8, hmastlock:1, hprot:PRIVILEGED_SECURE_INSTRUCTION, hsize:WORD, hnonsec:x, hexcl:x, hmaster:x, htrans:SEQ, hwdata:'{0, 0, 0, 0, 0, 0, 0, 0, 0, 0, 0, 0, 0, 0, 0, 0, 3794994328}, hwstrb:'{0, 0, 0, 0, 0, 0, 0, 0, 0, 0, 0, 0, 0, 0, 0, 0, 15}, hwrite:WRITE, hrdata:'{x, x, x, x, x, x, x, x, x, x, x, x, x, x, x, x, x}, hreadyout:x, hresp:OKAY, hexokay:x, hready:1, noOfWaitStates:0, noOfBusyStates:0, busyControl:0}&&&
# UVM_INFO ../../src/hvlTop/masterAgent/AhbMasterMonitorProxy.sv(57) @ 110: uvm_test_top.ahbEnvironment.ahbMasterAgent[0].ahbMasterMonitorProxy [AhbMasterMonitorProxy] Sending packet via analysis_port: , 
#  -----------------------------------------------------------------------------------
# Name                      Type                  Size  Value                        
# -----------------------------------------------------------------------------------
# ahbMasterPacket           AhbMasterTransaction  -     @1224                        
#   haddr                   integral              32    'h37415174                   
#   hselx                   integral              1     'b1                          
#   hburst                  string                5     INCR8                        
#   hmastlock               integral              1     'h1                          
#   hprot                   string                29    PRIVILEGED_SECURE_INSTRUCTION
#   hsize                   string                4     WORD                         
#   hnonsec                 integral              1     'h0                          
#   hexcl                   integral              1     'h0                          
#   hmaster                 integral              1     'd0                          
#   htrans                  string                3     SEQ                          
#   hwrite                  string                5     WRITE                        
#   hreadyout               integral              1     'h0                          
#   hresp                   string                4     OKAY                         
#   hexokay                 integral              1     'h0                          
#   hready                  integral              1     'h1                          
#   noOfwaitStatesDetected  integral              32    'h0                          
#   hwdata[0]               integral              32    'he2330498                   
#   hwstrb[0]               integral              4     'b1111                       
# -----------------------------------------------------------------------------------
# 
# UVM_INFO ../../src/hvlTop/masterAgent/AhbMasterCoverage.sv(118) @ 110: uvm_test_top.ahbEnvironment.ahbMasterAgent[0].ahbMasterCoverage [AhbMasterCoverage] Before calling SAMPLE METHOD
# UVM_INFO ../../src/hvlTop/masterAgent/AhbMasterCoverage.sv(120) @ 110: uvm_test_top.ahbEnvironment.ahbMasterAgent[0].ahbMasterCoverage [AhbMasterCoverage] After calling SAMPLE METHOD
# UVM_INFO ../../src/hdlTop/slaveAgentBFM/AhbSlaveDriverBFM.sv(108) @ 110: reporter [AHB_SLAVE_DRIVER_BFM] Busy = 0
# &&&&values inside monitor proxy '{haddr:927027572, hselx:1, hburst:INCR8, hmastlock:x, hprot:PRIVILEGED_SECURE_INSTRUCTION, hsize:WORD, hnonsec:1, hexcl:x, hmaster:x, htrans:SEQ, hwdata:'{0, 0, 0, 0, 0, 0, 0, 0, 0, 0, 0, 0, 0, 0, 0, 0, 3794994328}, hwstrb:'{0, 0, 0, 0, 0, 0, 0, 0, 0, 0, 0, 0, 0, 0, 0, 0, 15}, hwrite:WRITE, hrdata:'{x, x, x, x, x, x, x, x, x, x, x, x, x, x, x, x, x}, hreadyout:1, hresp:OKAY, hexokay:x, hready:x, noOfWaitStates:0, noOfBusyStates:0, busyControl:0}&&&
# UVM_INFO ../../src/hvlTop/slaveAgent/AhbSlaveSequenceItemConverter.sv(143) @ 110: reporter [ahbSlaveSequeceItemconverterClass] After randomizing noofwaitstate = 00000000000000000000000000000000
# UVM_INFO ../../src/hvlTop/slaveAgent/AhbSlaveSequenceItemConverter.sv(171) @ 110: reporter [ahbSlaveSequeceItemconverterClass] -------------------------------------------------------------
# UVM_INFO ../../src/hvlTop/slaveAgent/AhbSlaveMonitorProxy.sv(60) @ 110: uvm_test_top.ahbEnvironment.ahbSlaveAgent[0].ahbSlaveMonitorProxy [AhbSlaveMonitorProxy] Sending packet via analysis_port: , 
#  ----------------------------------------------------------------------------
# Name                Type                 Size  Value                        
# ----------------------------------------------------------------------------
# slave Packet        AhbSlaveTransaction  -     @1228                        
#   haddr             integral             32    'h37415174                   
#   hselx             integral             1     'b1                          
#   hburst            string               5     INCR8                        
#   hmastlock         integral             1     'h0                          
#   hprot             string               29    PRIVILEGED_SECURE_INSTRUCTION
#   hsize             string               4     WORD                         
#   hnonsec           integral             1     'h1                          
#   hexcl             integral             1     'h0                          
#   hmaster           integral             1     'd0                          
#   htrans            string               3     SEQ                          
#   hwrite            string               5     WRITE                        
#   hreadyout         integral             1     'h1                          
#   hresp             string               4     OKAY                         
#   hexokay           integral             1     'h0                          
#   hready            integral             1     'h0                          
#   choosePacketData  integral             1     'd0                          
#   hwdata[0]         integral             32    'he2330498                   
#   hwstrb[0]         integral             4     'b1111                       
# ----------------------------------------------------------------------------
# 
# UVM_INFO ../../src/hvlTop/slaveAgent/AhbSlaveCoverage.sv(39) @ 110: uvm_test_top.ahbEnvironment.ahbSlaveAgent[0].ahbSlaveCoverage [AhbSlaveCoverage] AHB SLAVE COVERAGE
# UVM_INFO ../../src/hvlTop/environment/AhbScoreboard.sv(76) @ 110: uvm_test_top.ahbEnvironment.ahbScoreboard [AhbScoreboard] after calling master's analysis fifo get method
# UVM_INFO ../../src/hvlTop/environment/AhbScoreboard.sv(82) @ 110: uvm_test_top.ahbEnvironment.ahbScoreboard [AhbScoreboard] after calling slave's analysis fifo get method
# UVM_INFO ../../src/hvlTop/environment/AhbScoreboard.sv(87) @ 110: uvm_test_top.ahbEnvironment.ahbScoreboard [AhbScoreboard] --
# -----------------------------------------------SCOREBOARD COMPARISIONS--------------------------------------------------
# UVM_INFO ../../src/hvlTop/environment/AhbScoreboard.sv(89) @ 110: uvm_test_top.ahbEnvironment.ahbScoreboard [AhbScoreboard] ahb HWDATA from master and slave is equal
# UVM_INFO ../../src/hvlTop/environment/AhbScoreboard.sv(91) @ 110: uvm_test_top.ahbEnvironment.ahbScoreboard [SB  HWDATA MATCHED] Master HWDATA = 3794994328 and Slave HWDATA = 3794994328
# UVM_INFO ../../src/hvlTop/environment/AhbScoreboard.sv(102) @ 110: uvm_test_top.ahbEnvironment.ahbScoreboard [AhbScoreboard] ahb HADDR from master and slave is equal
# UVM_INFO ../../src/hvlTop/environment/AhbScoreboard.sv(104) @ 110: uvm_test_top.ahbEnvironment.ahbScoreboard [SB HADDR MATCH] Master HADDR = 'h37415174 and Slave HADDR = 'h37415174
# UVM_INFO ../../src/hvlTop/environment/AhbScoreboard.sv(116) @ 110: uvm_test_top.ahbEnvironment.ahbScoreboard [AhbScoreboard] ahb HWRITE from master and slave is equal
# UVM_INFO ../../src/hvlTop/environment/AhbScoreboard.sv(118) @ 110: uvm_test_top.ahbEnvironment.ahbScoreboard [SB HWRITE MATCH] Master HWRITE = 'h1 and Slave hwrite = 'h1
# UVM_INFO ../../src/hvlTop/environment/AhbScoreboard.sv(130) @ 110: uvm_test_top.ahbEnvironment.ahbScoreboard [AhbScoreboard] --
# -----------------------------------------------END OF SCOREBOARD COMPARISIONS---------------------------------------
# ** Info: Address stability during waited transfer verified.
#    Time: 110 ns Started: 110 ns  Scope: HdlTop.ahbMasterAgentBFM.ahbMasterMonitorBFM.ahb_assert File: ../../src/hdlTop/masterAgentBFM/AhbMasterAssertion.sv Line: 134
# ** Info: Valid burst type!
#    Time: 110 ns Started: 110 ns  Scope: HdlTop.ahbMasterAgentBFM.ahbMasterMonitorBFM.ahb_assert File: ../../src/hdlTop/masterAgentBFM/AhbMasterAssertion.sv Line: 152
# ** Info: HMASTLOCK is asserted during a locked transfer
#    Time: 110 ns Started: 110 ns  Scope: HdlTop.ahbMasterAgentBFM.ahbMasterMonitorBFM.ahb_assert File: ../../src/hdlTop/masterAgentBFM/AhbMasterAssertion.sv Line: 87
# ** Info: HADDR is aligned based on HSIZE
#    Time: 110 ns Started: 110 ns  Scope: HdlTop.ahbMasterAgentBFM.ahbMasterMonitorBFM.ahb_assert File: ../../src/hdlTop/masterAgentBFM/AhbMasterAssertion.sv Line: 78
# ** Info: Address Aligned with size
#    Time: 110 ns Started: 110 ns  Scope: HdlTop.ahbMasterAgentBFM.ahbMasterMonitorBFM.ahb_cover File: ../../src/hdlTop/masterAgentBFM/AhbMasterCoverProperty.sv Line: 58
# ** Info: HWDATA is Valid When HWRITE IS HIGH
#    Time: 110 ns Started: 90 ns  Scope: HdlTop.ahbMasterAgentBFM.ahbMasterMonitorBFM.ahb_assert File: ../../src/hdlTop/masterAgentBFM/AhbMasterAssertion.sv Line: 60
# ** Info: HSIZE matches the data width supported by the slave!
#    Time: 110 ns Started: 110 ns  Scope: HdlTop.ahbMasterAgentBFM.ahbMasterMonitorBFM.ahb_assert File: ../../src/hdlTop/masterAgentBFM/AhbMasterAssertion.sv Line: 143
# ** Info: Hwstrb valid
#    Time: 110 ns Started: 110 ns  Scope: HdlTop.ahbMasterAgentBFM.ahbMasterMonitorBFM.ahb_assert File: ../../src/hdlTop/masterAgentBFM/AhbMasterAssertion.sv Line: 161
# ** Info: HRESP is OKAY for valid transactions!
#    Time: 110 ns Started: 90 ns  Scope: HdlTop.ahbSlaveAgentBFM.ahbSlaveMonitorBFM.ahb_assert File: ../../src/hdlTop/slaveAgentBFM/AhbSlaveAssertion.sv Line: 52
# ** Info: Transition from BUSY to SEQ passed and address is hold
#    Time: 110 ns Started: 90 ns  Scope: HdlTop.ahbMasterAgentBFM.ahbMasterMonitorBFM.ahb_assert File: ../../src/hdlTop/masterAgentBFM/AhbMasterAssertion.sv Line: 117
# ** Info: Hresp is valid
#    Time: 110 ns Started: 90 ns  Scope: HdlTop.ahbSlaveAgentBFM.ahbSlaveMonitorBFM.ahb_cover File: ../../src/hdlTop/slaveAgentBFM/AhbSlaveCoverProperty.sv Line: 57
# UVM_INFO ../../src/hdlTop/masterAgentBFM/AhbMasterDriverBFM.sv(153) @ 130: reporter [AHB_MASTER_DRIVER_BFM] Driving BUSY Transfer at Address: 37415178
# &&&&values inside master monitor proxy '{haddr:927027576, hselx:1, hburst:INCR8, hmastlock:1, hprot:PRIVILEGED_SECURE_INSTRUCTION, hsize:WORD, hnonsec:x, hexcl:x, hmaster:x, htrans:SEQ, hwdata:'{0, 0, 0, 0, 0, 0, 0, 0, 0, 0, 0, 0, 0, 0, 0, 0, 3147628734}, hwstrb:'{0, 0, 0, 0, 0, 0, 0, 0, 0, 0, 0, 0, 0, 0, 0, 0, 15}, hwrite:WRITE, hrdata:'{x, x, x, x, x, x, x, x, x, x, x, x, x, x, x, x, x}, hreadyout:x, hresp:OKAY, hexokay:x, hready:1, noOfWaitStates:0, noOfBusyStates:0, busyControl:0}&&&
# UVM_INFO ../../src/hvlTop/masterAgent/AhbMasterMonitorProxy.sv(57) @ 130: uvm_test_top.ahbEnvironment.ahbMasterAgent[0].ahbMasterMonitorProxy [AhbMasterMonitorProxy] Sending packet via analysis_port: , 
#  -----------------------------------------------------------------------------------
# Name                      Type                  Size  Value                        
# -----------------------------------------------------------------------------------
# ahbMasterPacket           AhbMasterTransaction  -     @1232                        
#   haddr                   integral              32    'h37415178                   
#   hselx                   integral              1     'b1                          
#   hburst                  string                5     INCR8                        
#   hmastlock               integral              1     'h1                          
#   hprot                   string                29    PRIVILEGED_SECURE_INSTRUCTION
#   hsize                   string                4     WORD                         
#   hnonsec                 integral              1     'h0                          
#   hexcl                   integral              1     'h0                          
#   hmaster                 integral              1     'd0                          
#   htrans                  string                3     SEQ                          
#   hwrite                  string                5     WRITE                        
#   hreadyout               integral              1     'h0                          
#   hresp                   string                4     OKAY                         
#   hexokay                 integral              1     'h0                          
#   hready                  integral              1     'h1                          
#   noOfwaitStatesDetected  integral              32    'h0                          
#   hwdata[0]               integral              32    'hbb9d00be                   
#   hwstrb[0]               integral              4     'b1111                       
# -----------------------------------------------------------------------------------
# 
# UVM_INFO ../../src/hvlTop/masterAgent/AhbMasterCoverage.sv(118) @ 130: uvm_test_top.ahbEnvironment.ahbMasterAgent[0].ahbMasterCoverage [AhbMasterCoverage] Before calling SAMPLE METHOD
# UVM_INFO ../../src/hvlTop/masterAgent/AhbMasterCoverage.sv(120) @ 130: uvm_test_top.ahbEnvironment.ahbMasterAgent[0].ahbMasterCoverage [AhbMasterCoverage] After calling SAMPLE METHOD
# UVM_INFO ../../src/hdlTop/slaveAgentBFM/AhbSlaveDriverBFM.sv(108) @ 130: reporter [AHB_SLAVE_DRIVER_BFM] Busy = 0
# &&&&values inside monitor proxy '{haddr:927027576, hselx:1, hburst:INCR8, hmastlock:x, hprot:PRIVILEGED_SECURE_INSTRUCTION, hsize:WORD, hnonsec:1, hexcl:x, hmaster:x, htrans:SEQ, hwdata:'{0, 0, 0, 0, 0, 0, 0, 0, 0, 0, 0, 0, 0, 0, 0, 0, 3147628734}, hwstrb:'{0, 0, 0, 0, 0, 0, 0, 0, 0, 0, 0, 0, 0, 0, 0, 0, 15}, hwrite:WRITE, hrdata:'{x, x, x, x, x, x, x, x, x, x, x, x, x, x, x, x, x}, hreadyout:1, hresp:OKAY, hexokay:x, hready:x, noOfWaitStates:0, noOfBusyStates:0, busyControl:0}&&&
# UVM_INFO ../../src/hvlTop/slaveAgent/AhbSlaveSequenceItemConverter.sv(143) @ 130: reporter [ahbSlaveSequeceItemconverterClass] After randomizing noofwaitstate = 00000000000000000000000000000000
# UVM_INFO ../../src/hvlTop/slaveAgent/AhbSlaveSequenceItemConverter.sv(171) @ 130: reporter [ahbSlaveSequeceItemconverterClass] -------------------------------------------------------------
# UVM_INFO ../../src/hvlTop/slaveAgent/AhbSlaveMonitorProxy.sv(60) @ 130: uvm_test_top.ahbEnvironment.ahbSlaveAgent[0].ahbSlaveMonitorProxy [AhbSlaveMonitorProxy] Sending packet via analysis_port: , 
#  ----------------------------------------------------------------------------
# Name                Type                 Size  Value                        
# ----------------------------------------------------------------------------
# slave Packet        AhbSlaveTransaction  -     @1236                        
#   haddr             integral             32    'h37415178                   
#   hselx             integral             1     'b1                          
#   hburst            string               5     INCR8                        
#   hmastlock         integral             1     'h0                          
#   hprot             string               29    PRIVILEGED_SECURE_INSTRUCTION
#   hsize             string               4     WORD                         
#   hnonsec           integral             1     'h1                          
#   hexcl             integral             1     'h0                          
#   hmaster           integral             1     'd0                          
#   htrans            string               3     SEQ                          
#   hwrite            string               5     WRITE                        
#   hreadyout         integral             1     'h1                          
#   hresp             string               4     OKAY                         
#   hexokay           integral             1     'h0                          
#   hready            integral             1     'h0                          
#   choosePacketData  integral             1     'd0                          
#   hwdata[0]         integral             32    'hbb9d00be                   
#   hwstrb[0]         integral             4     'b1111                       
# ----------------------------------------------------------------------------
# 
# UVM_INFO ../../src/hvlTop/slaveAgent/AhbSlaveCoverage.sv(39) @ 130: uvm_test_top.ahbEnvironment.ahbSlaveAgent[0].ahbSlaveCoverage [AhbSlaveCoverage] AHB SLAVE COVERAGE
# UVM_INFO ../../src/hvlTop/environment/AhbScoreboard.sv(76) @ 130: uvm_test_top.ahbEnvironment.ahbScoreboard [AhbScoreboard] after calling master's analysis fifo get method
# UVM_INFO ../../src/hvlTop/environment/AhbScoreboard.sv(82) @ 130: uvm_test_top.ahbEnvironment.ahbScoreboard [AhbScoreboard] after calling slave's analysis fifo get method
# UVM_INFO ../../src/hvlTop/environment/AhbScoreboard.sv(87) @ 130: uvm_test_top.ahbEnvironment.ahbScoreboard [AhbScoreboard] --
# -----------------------------------------------SCOREBOARD COMPARISIONS--------------------------------------------------
# UVM_INFO ../../src/hvlTop/environment/AhbScoreboard.sv(89) @ 130: uvm_test_top.ahbEnvironment.ahbScoreboard [AhbScoreboard] ahb HWDATA from master and slave is equal
# UVM_INFO ../../src/hvlTop/environment/AhbScoreboard.sv(91) @ 130: uvm_test_top.ahbEnvironment.ahbScoreboard [SB  HWDATA MATCHED] Master HWDATA = 3147628734 and Slave HWDATA = 3147628734
# UVM_INFO ../../src/hvlTop/environment/AhbScoreboard.sv(102) @ 130: uvm_test_top.ahbEnvironment.ahbScoreboard [AhbScoreboard] ahb HADDR from master and slave is equal
# UVM_INFO ../../src/hvlTop/environment/AhbScoreboard.sv(104) @ 130: uvm_test_top.ahbEnvironment.ahbScoreboard [SB HADDR MATCH] Master HADDR = 'h37415178 and Slave HADDR = 'h37415178
# UVM_INFO ../../src/hvlTop/environment/AhbScoreboard.sv(116) @ 130: uvm_test_top.ahbEnvironment.ahbScoreboard [AhbScoreboard] ahb HWRITE from master and slave is equal
# UVM_INFO ../../src/hvlTop/environment/AhbScoreboard.sv(118) @ 130: uvm_test_top.ahbEnvironment.ahbScoreboard [SB HWRITE MATCH] Master HWRITE = 'h1 and Slave hwrite = 'h1
# UVM_INFO ../../src/hvlTop/environment/AhbScoreboard.sv(130) @ 130: uvm_test_top.ahbEnvironment.ahbScoreboard [AhbScoreboard] --
# -----------------------------------------------END OF SCOREBOARD COMPARISIONS---------------------------------------
# ** Info: INCR burst type passed: Address incremented correctly
#    Time: 130 ns Started: 110 ns  Scope: HdlTop.ahbMasterAgentBFM.ahbMasterMonitorBFM.ahb_assert File: ../../src/hdlTop/masterAgentBFM/AhbMasterAssertion.sv Line: 97
# ** Info: Address stability during waited transfer verified.
#    Time: 130 ns Started: 130 ns  Scope: HdlTop.ahbMasterAgentBFM.ahbMasterMonitorBFM.ahb_assert File: ../../src/hdlTop/masterAgentBFM/AhbMasterAssertion.sv Line: 134
# ** Info: HTRANS is Valid
#    Time: 130 ns Started: 110 ns  Scope: HdlTop.ahbMasterAgentBFM.ahbMasterMonitorBFM.ahb_assert File: ../../src/hdlTop/masterAgentBFM/AhbMasterAssertion.sv Line: 69
# ** Info: Valid burst type!
#    Time: 130 ns Started: 130 ns  Scope: HdlTop.ahbMasterAgentBFM.ahbMasterMonitorBFM.ahb_assert File: ../../src/hdlTop/masterAgentBFM/AhbMasterAssertion.sv Line: 152
# ** Info: HMASTLOCK is asserted during a locked transfer
#    Time: 130 ns Started: 130 ns  Scope: HdlTop.ahbMasterAgentBFM.ahbMasterMonitorBFM.ahb_assert File: ../../src/hdlTop/masterAgentBFM/AhbMasterAssertion.sv Line: 87
# ** Info: HADDR is aligned based on HSIZE
#    Time: 130 ns Started: 130 ns  Scope: HdlTop.ahbMasterAgentBFM.ahbMasterMonitorBFM.ahb_assert File: ../../src/hdlTop/masterAgentBFM/AhbMasterAssertion.sv Line: 78
# ** Info: Address Aligned with size
#    Time: 130 ns Started: 130 ns  Scope: HdlTop.ahbMasterAgentBFM.ahbMasterMonitorBFM.ahb_cover File: ../../src/hdlTop/masterAgentBFM/AhbMasterCoverProperty.sv Line: 58
# ** Info: HWDATA is Valid When HWRITE IS HIGH
#    Time: 130 ns Started: 110 ns  Scope: HdlTop.ahbMasterAgentBFM.ahbMasterMonitorBFM.ahb_assert File: ../../src/hdlTop/masterAgentBFM/AhbMasterAssertion.sv Line: 60
# ** Info: HSIZE matches the data width supported by the slave!
#    Time: 130 ns Started: 130 ns  Scope: HdlTop.ahbMasterAgentBFM.ahbMasterMonitorBFM.ahb_assert File: ../../src/hdlTop/masterAgentBFM/AhbMasterAssertion.sv Line: 143
# ** Info: Hwstrb valid
#    Time: 130 ns Started: 130 ns  Scope: HdlTop.ahbMasterAgentBFM.ahbMasterMonitorBFM.ahb_assert File: ../../src/hdlTop/masterAgentBFM/AhbMasterAssertion.sv Line: 161
# ** Info: HRESP is OKAY for valid transactions!
#    Time: 130 ns Started: 110 ns  Scope: HdlTop.ahbSlaveAgentBFM.ahbSlaveMonitorBFM.ahb_assert File: ../../src/hdlTop/slaveAgentBFM/AhbSlaveAssertion.sv Line: 52
# ** Info: Valid Write Transfer
#    Time: 130 ns Started: 110 ns  Scope: HdlTop.ahbMasterAgentBFM.ahbMasterMonitorBFM.ahb_cover File: ../../src/hdlTop/masterAgentBFM/AhbMasterCoverProperty.sv Line: 49
# ** Info: Hresp is valid
#    Time: 130 ns Started: 110 ns  Scope: HdlTop.ahbSlaveAgentBFM.ahbSlaveMonitorBFM.ahb_cover File: ../../src/hdlTop/slaveAgentBFM/AhbSlaveCoverProperty.sv Line: 57
# &&&&values inside master monitor proxy '{haddr:927027580, hselx:1, hburst:INCR8, hmastlock:1, hprot:PRIVILEGED_SECURE_INSTRUCTION, hsize:WORD, hnonsec:x, hexcl:x, hmaster:x, htrans:BUSY, hwdata:'{0, 0, 0, 0, 0, 0, 0, 0, 0, 0, 0, 0, 0, 0, 0, 0, 80186592}, hwstrb:'{0, 0, 0, 0, 0, 0, 0, 0, 0, 0, 0, 0, 0, 0, 0, 0, 15}, hwrite:WRITE, hrdata:'{x, x, x, x, x, x, x, x, x, x, x, x, x, x, x, x, x}, hreadyout:x, hresp:OKAY, hexokay:x, hready:1, noOfWaitStates:0, noOfBusyStates:0, busyControl:0}&&&
# UVM_INFO ../../src/hvlTop/masterAgent/AhbMasterMonitorProxy.sv(57) @ 150: uvm_test_top.ahbEnvironment.ahbMasterAgent[0].ahbMasterMonitorProxy [AhbMasterMonitorProxy] Sending packet via analysis_port: , 
#  -----------------------------------------------------------------------------------
# Name                      Type                  Size  Value                        
# -----------------------------------------------------------------------------------
# ahbMasterPacket           AhbMasterTransaction  -     @1240                        
#   haddr                   integral              32    'h3741517c                   
#   hselx                   integral              1     'b1                          
#   hburst                  string                5     INCR8                        
#   hmastlock               integral              1     'h1                          
#   hprot                   string                29    PRIVILEGED_SECURE_INSTRUCTION
#   hsize                   string                4     WORD                         
#   hnonsec                 integral              1     'h0                          
#   hexcl                   integral              1     'h0                          
#   hmaster                 integral              1     'd0                          
#   htrans                  string                4     BUSY                         
#   hwrite                  string                5     WRITE                        
#   hreadyout               integral              1     'h0                          
#   hresp                   string                4     OKAY                         
#   hexokay                 integral              1     'h0                          
#   hready                  integral              1     'h1                          
#   noOfwaitStatesDetected  integral              32    'h0                          
#   hwdata[0]               integral              32    'h4c78ce0                    
#   hwstrb[0]               integral              4     'b1111                       
# -----------------------------------------------------------------------------------
# 
# UVM_INFO ../../src/hvlTop/masterAgent/AhbMasterCoverage.sv(118) @ 150: uvm_test_top.ahbEnvironment.ahbMasterAgent[0].ahbMasterCoverage [AhbMasterCoverage] Before calling SAMPLE METHOD
# UVM_INFO ../../src/hvlTop/masterAgent/AhbMasterCoverage.sv(120) @ 150: uvm_test_top.ahbEnvironment.ahbMasterAgent[0].ahbMasterCoverage [AhbMasterCoverage] After calling SAMPLE METHOD
# UVM_INFO ../../src/hdlTop/slaveAgentBFM/AhbSlaveDriverBFM.sv(108) @ 150: reporter [AHB_SLAVE_DRIVER_BFM] Busy = 0
# &&&&values inside monitor proxy '{haddr:927027580, hselx:1, hburst:INCR8, hmastlock:x, hprot:PRIVILEGED_SECURE_INSTRUCTION, hsize:WORD, hnonsec:1, hexcl:x, hmaster:x, htrans:BUSY, hwdata:'{0, 0, 0, 0, 0, 0, 0, 0, 0, 0, 0, 0, 0, 0, 0, 0, 80186592}, hwstrb:'{0, 0, 0, 0, 0, 0, 0, 0, 0, 0, 0, 0, 0, 0, 0, 0, 15}, hwrite:WRITE, hrdata:'{x, x, x, x, x, x, x, x, x, x, x, x, x, x, x, x, x}, hreadyout:1, hresp:OKAY, hexokay:x, hready:x, noOfWaitStates:0, noOfBusyStates:0, busyControl:0}&&&
# UVM_INFO ../../src/hvlTop/slaveAgent/AhbSlaveSequenceItemConverter.sv(143) @ 150: reporter [ahbSlaveSequeceItemconverterClass] After randomizing noofwaitstate = 00000000000000000000000000000000
# UVM_INFO ../../src/hvlTop/slaveAgent/AhbSlaveSequenceItemConverter.sv(171) @ 150: reporter [ahbSlaveSequeceItemconverterClass] -------------------------------------------------------------
# UVM_INFO ../../src/hvlTop/slaveAgent/AhbSlaveMonitorProxy.sv(60) @ 150: uvm_test_top.ahbEnvironment.ahbSlaveAgent[0].ahbSlaveMonitorProxy [AhbSlaveMonitorProxy] Sending packet via analysis_port: , 
#  ----------------------------------------------------------------------------
# Name                Type                 Size  Value                        
# ----------------------------------------------------------------------------
# slave Packet        AhbSlaveTransaction  -     @1244                        
#   haddr             integral             32    'h3741517c                   
#   hselx             integral             1     'b1                          
#   hburst            string               5     INCR8                        
#   hmastlock         integral             1     'h0                          
#   hprot             string               29    PRIVILEGED_SECURE_INSTRUCTION
#   hsize             string               4     WORD                         
#   hnonsec           integral             1     'h1                          
#   hexcl             integral             1     'h0                          
#   hmaster           integral             1     'd0                          
#   htrans            string               4     BUSY                         
#   hwrite            string               5     WRITE                        
#   hreadyout         integral             1     'h1                          
#   hresp             string               4     OKAY                         
#   hexokay           integral             1     'h0                          
#   hready            integral             1     'h0                          
#   choosePacketData  integral             1     'd0                          
#   hwdata[0]         integral             32    'h4c78ce0                    
#   hwstrb[0]         integral             4     'b1111                       
# ----------------------------------------------------------------------------
# 
# UVM_INFO ../../src/hvlTop/slaveAgent/AhbSlaveCoverage.sv(39) @ 150: uvm_test_top.ahbEnvironment.ahbSlaveAgent[0].ahbSlaveCoverage [AhbSlaveCoverage] AHB SLAVE COVERAGE
# UVM_INFO ../../src/hvlTop/environment/AhbScoreboard.sv(76) @ 150: uvm_test_top.ahbEnvironment.ahbScoreboard [AhbScoreboard] after calling master's analysis fifo get method
# UVM_INFO ../../src/hvlTop/environment/AhbScoreboard.sv(82) @ 150: uvm_test_top.ahbEnvironment.ahbScoreboard [AhbScoreboard] after calling slave's analysis fifo get method
# UVM_INFO ../../src/hvlTop/environment/AhbScoreboard.sv(87) @ 150: uvm_test_top.ahbEnvironment.ahbScoreboard [AhbScoreboard] --
# -----------------------------------------------SCOREBOARD COMPARISIONS--------------------------------------------------
# UVM_INFO ../../src/hvlTop/environment/AhbScoreboard.sv(89) @ 150: uvm_test_top.ahbEnvironment.ahbScoreboard [AhbScoreboard] ahb HWDATA from master and slave is equal
# UVM_INFO ../../src/hvlTop/environment/AhbScoreboard.sv(91) @ 150: uvm_test_top.ahbEnvironment.ahbScoreboard [SB  HWDATA MATCHED] Master HWDATA = 80186592 and Slave HWDATA = 80186592
# UVM_INFO ../../src/hvlTop/environment/AhbScoreboard.sv(102) @ 150: uvm_test_top.ahbEnvironment.ahbScoreboard [AhbScoreboard] ahb HADDR from master and slave is equal
# UVM_INFO ../../src/hvlTop/environment/AhbScoreboard.sv(104) @ 150: uvm_test_top.ahbEnvironment.ahbScoreboard [SB HADDR MATCH] Master HADDR = 'h3741517c and Slave HADDR = 'h3741517c
# UVM_INFO ../../src/hvlTop/environment/AhbScoreboard.sv(116) @ 150: uvm_test_top.ahbEnvironment.ahbScoreboard [AhbScoreboard] ahb HWRITE from master and slave is equal
# UVM_INFO ../../src/hvlTop/environment/AhbScoreboard.sv(118) @ 150: uvm_test_top.ahbEnvironment.ahbScoreboard [SB HWRITE MATCH] Master HWRITE = 'h1 and Slave hwrite = 'h1
# UVM_INFO ../../src/hvlTop/environment/AhbScoreboard.sv(130) @ 150: uvm_test_top.ahbEnvironment.ahbScoreboard [AhbScoreboard] --
# -----------------------------------------------END OF SCOREBOARD COMPARISIONS---------------------------------------
# ** Info: HTRANS is Valid
#    Time: 150 ns Started: 130 ns  Scope: HdlTop.ahbMasterAgentBFM.ahbMasterMonitorBFM.ahb_assert File: ../../src/hdlTop/masterAgentBFM/AhbMasterAssertion.sv Line: 69
# ** Info: Busy state has occuered
#    Time: 150 ns Started: 130 ns  Scope: HdlTop.ahbMasterAgentBFM.ahbMasterMonitorBFM.ahb_cover File: ../../src/hdlTop/masterAgentBFM/AhbMasterCoverProperty.sv Line: 74
# ** Info: Busy state has occuered
#    Time: 150 ns Started: 110 ns  Scope: HdlTop.ahbMasterAgentBFM.ahbMasterMonitorBFM.ahb_cover File: ../../src/hdlTop/masterAgentBFM/AhbMasterCoverProperty.sv Line: 74
# ** Info: Valid burst type!
#    Time: 150 ns Started: 150 ns  Scope: HdlTop.ahbMasterAgentBFM.ahbMasterMonitorBFM.ahb_assert File: ../../src/hdlTop/masterAgentBFM/AhbMasterAssertion.sv Line: 152
# ** Info: HMASTLOCK is asserted during a locked transfer
#    Time: 150 ns Started: 150 ns  Scope: HdlTop.ahbMasterAgentBFM.ahbMasterMonitorBFM.ahb_assert File: ../../src/hdlTop/masterAgentBFM/AhbMasterAssertion.sv Line: 87
# ** Info: HADDR is aligned based on HSIZE
#    Time: 150 ns Started: 150 ns  Scope: HdlTop.ahbMasterAgentBFM.ahbMasterMonitorBFM.ahb_assert File: ../../src/hdlTop/masterAgentBFM/AhbMasterAssertion.sv Line: 78
# ** Info: Address Aligned with size
#    Time: 150 ns Started: 150 ns  Scope: HdlTop.ahbMasterAgentBFM.ahbMasterMonitorBFM.ahb_cover File: ../../src/hdlTop/masterAgentBFM/AhbMasterCoverProperty.sv Line: 58
# ** Info: HWDATA is Valid When HWRITE IS HIGH
#    Time: 150 ns Started: 130 ns  Scope: HdlTop.ahbMasterAgentBFM.ahbMasterMonitorBFM.ahb_assert File: ../../src/hdlTop/masterAgentBFM/AhbMasterAssertion.sv Line: 60
# ** Info: HSIZE matches the data width supported by the slave!
#    Time: 150 ns Started: 150 ns  Scope: HdlTop.ahbMasterAgentBFM.ahbMasterMonitorBFM.ahb_assert File: ../../src/hdlTop/masterAgentBFM/AhbMasterAssertion.sv Line: 143
# ** Info: Hwstrb valid
#    Time: 150 ns Started: 150 ns  Scope: HdlTop.ahbMasterAgentBFM.ahbMasterMonitorBFM.ahb_assert File: ../../src/hdlTop/masterAgentBFM/AhbMasterAssertion.sv Line: 161
# ** Info: HRESP is OKAY for valid transactions!
#    Time: 150 ns Started: 130 ns  Scope: HdlTop.ahbSlaveAgentBFM.ahbSlaveMonitorBFM.ahb_assert File: ../../src/hdlTop/slaveAgentBFM/AhbSlaveAssertion.sv Line: 52
# ** Info: Valid Write Transfer
#    Time: 150 ns Started: 130 ns  Scope: HdlTop.ahbMasterAgentBFM.ahbMasterMonitorBFM.ahb_cover File: ../../src/hdlTop/masterAgentBFM/AhbMasterCoverProperty.sv Line: 49
# ** Info: Hresp is valid
#    Time: 150 ns Started: 130 ns  Scope: HdlTop.ahbSlaveAgentBFM.ahbSlaveMonitorBFM.ahb_cover File: ../../src/hdlTop/slaveAgentBFM/AhbSlaveCoverProperty.sv Line: 57
# &&&&values inside master monitor proxy '{haddr:927027580, hselx:1, hburst:INCR8, hmastlock:1, hprot:PRIVILEGED_SECURE_INSTRUCTION, hsize:WORD, hnonsec:x, hexcl:x, hmaster:x, htrans:BUSY, hwdata:'{0, 0, 0, 0, 0, 0, 0, 0, 0, 0, 0, 0, 0, 0, 0, 0, 80186592}, hwstrb:'{0, 0, 0, 0, 0, 0, 0, 0, 0, 0, 0, 0, 0, 0, 0, 0, 15}, hwrite:WRITE, hrdata:'{x, x, x, x, x, x, x, x, x, x, x, x, x, x, x, x, x}, hreadyout:x, hresp:OKAY, hexokay:x, hready:1, noOfWaitStates:0, noOfBusyStates:0, busyControl:0}&&&
# UVM_INFO ../../src/hvlTop/masterAgent/AhbMasterMonitorProxy.sv(57) @ 170: uvm_test_top.ahbEnvironment.ahbMasterAgent[0].ahbMasterMonitorProxy [AhbMasterMonitorProxy] Sending packet via analysis_port: , 
#  -----------------------------------------------------------------------------------
# Name                      Type                  Size  Value                        
# -----------------------------------------------------------------------------------
# ahbMasterPacket           AhbMasterTransaction  -     @1248                        
#   haddr                   integral              32    'h3741517c                   
#   hselx                   integral              1     'b1                          
#   hburst                  string                5     INCR8                        
#   hmastlock               integral              1     'h1                          
#   hprot                   string                29    PRIVILEGED_SECURE_INSTRUCTION
#   hsize                   string                4     WORD                         
#   hnonsec                 integral              1     'h0                          
#   hexcl                   integral              1     'h0                          
#   hmaster                 integral              1     'd0                          
#   htrans                  string                4     BUSY                         
#   hwrite                  string                5     WRITE                        
#   hreadyout               integral              1     'h0                          
#   hresp                   string                4     OKAY                         
#   hexokay                 integral              1     'h0                          
#   hready                  integral              1     'h1                          
#   noOfwaitStatesDetected  integral              32    'h0                          
#   hwdata[0]               integral              32    'h4c78ce0                    
#   hwstrb[0]               integral              4     'b1111                       
# -----------------------------------------------------------------------------------
# 
# UVM_INFO ../../src/hvlTop/masterAgent/AhbMasterCoverage.sv(118) @ 170: uvm_test_top.ahbEnvironment.ahbMasterAgent[0].ahbMasterCoverage [AhbMasterCoverage] Before calling SAMPLE METHOD
# UVM_INFO ../../src/hvlTop/masterAgent/AhbMasterCoverage.sv(120) @ 170: uvm_test_top.ahbEnvironment.ahbMasterAgent[0].ahbMasterCoverage [AhbMasterCoverage] After calling SAMPLE METHOD
# UVM_INFO ../../src/hdlTop/slaveAgentBFM/AhbSlaveDriverBFM.sv(108) @ 170: reporter [AHB_SLAVE_DRIVER_BFM] Busy = 0
# &&&&values inside monitor proxy '{haddr:927027580, hselx:1, hburst:INCR8, hmastlock:x, hprot:PRIVILEGED_SECURE_INSTRUCTION, hsize:WORD, hnonsec:1, hexcl:x, hmaster:x, htrans:BUSY, hwdata:'{0, 0, 0, 0, 0, 0, 0, 0, 0, 0, 0, 0, 0, 0, 0, 0, 80186592}, hwstrb:'{0, 0, 0, 0, 0, 0, 0, 0, 0, 0, 0, 0, 0, 0, 0, 0, 15}, hwrite:WRITE, hrdata:'{x, x, x, x, x, x, x, x, x, x, x, x, x, x, x, x, x}, hreadyout:1, hresp:OKAY, hexokay:x, hready:x, noOfWaitStates:0, noOfBusyStates:0, busyControl:0}&&&
# UVM_INFO ../../src/hvlTop/slaveAgent/AhbSlaveSequenceItemConverter.sv(143) @ 170: reporter [ahbSlaveSequeceItemconverterClass] After randomizing noofwaitstate = 00000000000000000000000000000000
# UVM_INFO ../../src/hvlTop/slaveAgent/AhbSlaveSequenceItemConverter.sv(171) @ 170: reporter [ahbSlaveSequeceItemconverterClass] -------------------------------------------------------------
# UVM_INFO ../../src/hvlTop/slaveAgent/AhbSlaveMonitorProxy.sv(60) @ 170: uvm_test_top.ahbEnvironment.ahbSlaveAgent[0].ahbSlaveMonitorProxy [AhbSlaveMonitorProxy] Sending packet via analysis_port: , 
#  ----------------------------------------------------------------------------
# Name                Type                 Size  Value                        
# ----------------------------------------------------------------------------
# slave Packet        AhbSlaveTransaction  -     @1252                        
#   haddr             integral             32    'h3741517c                   
#   hselx             integral             1     'b1                          
#   hburst            string               5     INCR8                        
#   hmastlock         integral             1     'h0                          
#   hprot             string               29    PRIVILEGED_SECURE_INSTRUCTION
#   hsize             string               4     WORD                         
#   hnonsec           integral             1     'h1                          
#   hexcl             integral             1     'h0                          
#   hmaster           integral             1     'd0                          
#   htrans            string               4     BUSY                         
#   hwrite            string               5     WRITE                        
#   hreadyout         integral             1     'h1                          
#   hresp             string               4     OKAY                         
#   hexokay           integral             1     'h0                          
#   hready            integral             1     'h0                          
#   choosePacketData  integral             1     'd0                          
#   hwdata[0]         integral             32    'h4c78ce0                    
#   hwstrb[0]         integral             4     'b1111                       
# ----------------------------------------------------------------------------
# 
# UVM_INFO ../../src/hvlTop/slaveAgent/AhbSlaveCoverage.sv(39) @ 170: uvm_test_top.ahbEnvironment.ahbSlaveAgent[0].ahbSlaveCoverage [AhbSlaveCoverage] AHB SLAVE COVERAGE
# UVM_INFO ../../src/hvlTop/environment/AhbScoreboard.sv(76) @ 170: uvm_test_top.ahbEnvironment.ahbScoreboard [AhbScoreboard] after calling master's analysis fifo get method
# UVM_INFO ../../src/hvlTop/environment/AhbScoreboard.sv(82) @ 170: uvm_test_top.ahbEnvironment.ahbScoreboard [AhbScoreboard] after calling slave's analysis fifo get method
# UVM_INFO ../../src/hvlTop/environment/AhbScoreboard.sv(87) @ 170: uvm_test_top.ahbEnvironment.ahbScoreboard [AhbScoreboard] --
# -----------------------------------------------SCOREBOARD COMPARISIONS--------------------------------------------------
# UVM_INFO ../../src/hvlTop/environment/AhbScoreboard.sv(89) @ 170: uvm_test_top.ahbEnvironment.ahbScoreboard [AhbScoreboard] ahb HWDATA from master and slave is equal
# UVM_INFO ../../src/hvlTop/environment/AhbScoreboard.sv(91) @ 170: uvm_test_top.ahbEnvironment.ahbScoreboard [SB  HWDATA MATCHED] Master HWDATA = 80186592 and Slave HWDATA = 80186592
# UVM_INFO ../../src/hvlTop/environment/AhbScoreboard.sv(102) @ 170: uvm_test_top.ahbEnvironment.ahbScoreboard [AhbScoreboard] ahb HADDR from master and slave is equal
# UVM_INFO ../../src/hvlTop/environment/AhbScoreboard.sv(104) @ 170: uvm_test_top.ahbEnvironment.ahbScoreboard [SB HADDR MATCH] Master HADDR = 'h3741517c and Slave HADDR = 'h3741517c
# UVM_INFO ../../src/hvlTop/environment/AhbScoreboard.sv(116) @ 170: uvm_test_top.ahbEnvironment.ahbScoreboard [AhbScoreboard] ahb HWRITE from master and slave is equal
# UVM_INFO ../../src/hvlTop/environment/AhbScoreboard.sv(118) @ 170: uvm_test_top.ahbEnvironment.ahbScoreboard [SB HWRITE MATCH] Master HWRITE = 'h1 and Slave hwrite = 'h1
# UVM_INFO ../../src/hvlTop/environment/AhbScoreboard.sv(130) @ 170: uvm_test_top.ahbEnvironment.ahbScoreboard [AhbScoreboard] --
# -----------------------------------------------END OF SCOREBOARD COMPARISIONS---------------------------------------
# ** Info: Valid burst type!
#    Time: 170 ns Started: 170 ns  Scope: HdlTop.ahbMasterAgentBFM.ahbMasterMonitorBFM.ahb_assert File: ../../src/hdlTop/masterAgentBFM/AhbMasterAssertion.sv Line: 152
# ** Info: HMASTLOCK is asserted during a locked transfer
#    Time: 170 ns Started: 170 ns  Scope: HdlTop.ahbMasterAgentBFM.ahbMasterMonitorBFM.ahb_assert File: ../../src/hdlTop/masterAgentBFM/AhbMasterAssertion.sv Line: 87
# ** Info: HADDR is aligned based on HSIZE
#    Time: 170 ns Started: 170 ns  Scope: HdlTop.ahbMasterAgentBFM.ahbMasterMonitorBFM.ahb_assert File: ../../src/hdlTop/masterAgentBFM/AhbMasterAssertion.sv Line: 78
# ** Info: Address Aligned with size
#    Time: 170 ns Started: 170 ns  Scope: HdlTop.ahbMasterAgentBFM.ahbMasterMonitorBFM.ahb_cover File: ../../src/hdlTop/masterAgentBFM/AhbMasterCoverProperty.sv Line: 58
# ** Info: HWDATA is Valid When HWRITE IS HIGH
#    Time: 170 ns Started: 150 ns  Scope: HdlTop.ahbMasterAgentBFM.ahbMasterMonitorBFM.ahb_assert File: ../../src/hdlTop/masterAgentBFM/AhbMasterAssertion.sv Line: 60
# ** Info: HSIZE matches the data width supported by the slave!
#    Time: 170 ns Started: 170 ns  Scope: HdlTop.ahbMasterAgentBFM.ahbMasterMonitorBFM.ahb_assert File: ../../src/hdlTop/masterAgentBFM/AhbMasterAssertion.sv Line: 143
# ** Info: Hwstrb valid
#    Time: 170 ns Started: 170 ns  Scope: HdlTop.ahbMasterAgentBFM.ahbMasterMonitorBFM.ahb_assert File: ../../src/hdlTop/masterAgentBFM/AhbMasterAssertion.sv Line: 161
# ** Info: HRESP is OKAY for valid transactions!
#    Time: 170 ns Started: 150 ns  Scope: HdlTop.ahbSlaveAgentBFM.ahbSlaveMonitorBFM.ahb_assert File: ../../src/hdlTop/slaveAgentBFM/AhbSlaveAssertion.sv Line: 52
# ** Error: Transition from BUSY to SEQ failed: and address is not hold
#    Time: 170 ns Started: 150 ns  Scope: HdlTop.ahbMasterAgentBFM.ahbMasterMonitorBFM.ahb_assert File: ../../src/hdlTop/masterAgentBFM/AhbMasterAssertion.sv Line: 118 Expr: htrans==SEQ
# ** Info: Hresp is valid
#    Time: 170 ns Started: 150 ns  Scope: HdlTop.ahbSlaveAgentBFM.ahbSlaveMonitorBFM.ahb_cover File: ../../src/hdlTop/slaveAgentBFM/AhbSlaveCoverProperty.sv Line: 57
# &&&&values inside master monitor proxy '{haddr:927027580, hselx:1, hburst:INCR8, hmastlock:1, hprot:PRIVILEGED_SECURE_INSTRUCTION, hsize:WORD, hnonsec:x, hexcl:x, hmaster:x, htrans:SEQ, hwdata:'{0, 0, 0, 0, 0, 0, 0, 0, 0, 0, 0, 0, 0, 0, 0, 0, 80186592}, hwstrb:'{0, 0, 0, 0, 0, 0, 0, 0, 0, 0, 0, 0, 0, 0, 0, 0, 15}, hwrite:WRITE, hrdata:'{x, x, x, x, x, x, x, x, x, x, x, x, x, x, x, x, x}, hreadyout:x, hresp:OKAY, hexokay:x, hready:1, noOfWaitStates:0, noOfBusyStates:0, busyControl:0}&&&
# UVM_INFO ../../src/hvlTop/masterAgent/AhbMasterMonitorProxy.sv(57) @ 190: uvm_test_top.ahbEnvironment.ahbMasterAgent[0].ahbMasterMonitorProxy [AhbMasterMonitorProxy] Sending packet via analysis_port: , 
#  -----------------------------------------------------------------------------------
# Name                      Type                  Size  Value                        
# -----------------------------------------------------------------------------------
# ahbMasterPacket           AhbMasterTransaction  -     @1256                        
#   haddr                   integral              32    'h3741517c                   
#   hselx                   integral              1     'b1                          
#   hburst                  string                5     INCR8                        
#   hmastlock               integral              1     'h1                          
#   hprot                   string                29    PRIVILEGED_SECURE_INSTRUCTION
#   hsize                   string                4     WORD                         
#   hnonsec                 integral              1     'h0                          
#   hexcl                   integral              1     'h0                          
#   hmaster                 integral              1     'd0                          
#   htrans                  string                3     SEQ                          
#   hwrite                  string                5     WRITE                        
#   hreadyout               integral              1     'h0                          
#   hresp                   string                4     OKAY                         
#   hexokay                 integral              1     'h0                          
#   hready                  integral              1     'h1                          
#   noOfwaitStatesDetected  integral              32    'h0                          
#   hwdata[0]               integral              32    'h4c78ce0                    
#   hwstrb[0]               integral              4     'b1111                       
# -----------------------------------------------------------------------------------
# 
# UVM_INFO ../../src/hvlTop/masterAgent/AhbMasterCoverage.sv(118) @ 190: uvm_test_top.ahbEnvironment.ahbMasterAgent[0].ahbMasterCoverage [AhbMasterCoverage] Before calling SAMPLE METHOD
# UVM_INFO ../../src/hvlTop/masterAgent/AhbMasterCoverage.sv(120) @ 190: uvm_test_top.ahbEnvironment.ahbMasterAgent[0].ahbMasterCoverage [AhbMasterCoverage] After calling SAMPLE METHOD
# UVM_INFO ../../src/hdlTop/slaveAgentBFM/AhbSlaveDriverBFM.sv(108) @ 190: reporter [AHB_SLAVE_DRIVER_BFM] Busy = 0
# &&&&values inside monitor proxy '{haddr:927027580, hselx:1, hburst:INCR8, hmastlock:x, hprot:PRIVILEGED_SECURE_INSTRUCTION, hsize:WORD, hnonsec:1, hexcl:x, hmaster:x, htrans:SEQ, hwdata:'{0, 0, 0, 0, 0, 0, 0, 0, 0, 0, 0, 0, 0, 0, 0, 0, 80186592}, hwstrb:'{0, 0, 0, 0, 0, 0, 0, 0, 0, 0, 0, 0, 0, 0, 0, 0, 15}, hwrite:WRITE, hrdata:'{x, x, x, x, x, x, x, x, x, x, x, x, x, x, x, x, x}, hreadyout:1, hresp:OKAY, hexokay:x, hready:x, noOfWaitStates:0, noOfBusyStates:0, busyControl:0}&&&
# UVM_INFO ../../src/hvlTop/slaveAgent/AhbSlaveSequenceItemConverter.sv(143) @ 190: reporter [ahbSlaveSequeceItemconverterClass] After randomizing noofwaitstate = 00000000000000000000000000000000
# UVM_INFO ../../src/hvlTop/slaveAgent/AhbSlaveSequenceItemConverter.sv(171) @ 190: reporter [ahbSlaveSequeceItemconverterClass] -------------------------------------------------------------
# UVM_INFO ../../src/hvlTop/slaveAgent/AhbSlaveMonitorProxy.sv(60) @ 190: uvm_test_top.ahbEnvironment.ahbSlaveAgent[0].ahbSlaveMonitorProxy [AhbSlaveMonitorProxy] Sending packet via analysis_port: , 
#  ----------------------------------------------------------------------------
# Name                Type                 Size  Value                        
# ----------------------------------------------------------------------------
