# vsim -vopt work.HvlTop work.HdlTop -voptargs="+acc=npr" -assertdebug "+UVM_TESTNAME=Ahb32bitWriteTest" "+UVM_VERBOSITY=UVM_HIGH" "+define+" -l Ahb32bitWriteTest/Ahb32bitWriteTest.log -sva -coverage -c -do "log -r /*; add wave -r /*; coverage save -onexit -assert -directive -cvg -codeAll Ahb32bitWriteTest/Ahb32bitWriteTest_coverage.ucdb; run -all; exit" -wlf Ahb32bitWriteTest/waveform.wlf 
# Start time: 14:51:53 on Mar 07,2025
# ** Note: (vsim-3812) Design is being optimized...
# //  Questa Sim
# //  Version 10.6c linux Jul 25 2017
# //
# //  Copyright 1991-2017 Mentor Graphics Corporation
# //  All Rights Reserved.
# //
# //  QuestaSim and its associated documentation contain trade
# //  secrets and commercial or financial information that are the property of
# //  Mentor Graphics Corporation and are privileged, confidential,
# //  and exempt from disclosure under the Freedom of Information Act,
# //  5 U.S.C. Section 552. Furthermore, this information
# //  is prohibited from disclosure under the Trade Secrets Act,
# //  18 U.S.C. Section 1905.
# //
# Loading sv_std.std
# Loading work.AhbSlaveDriverBFM(fast)
# Loading work.AhbSlaveMonitorBFM(fast)
# Loading work.AhbGlobalPackage(fast)
# Loading mtiUvm.uvm_pkg
# Loading work.AhbSlavePackage(fast)
# Loading work.AhbMasterDriverBFM(fast)
# Loading work.AhbMasterMonitorBFM(fast)
# Loading work.AhbMasterPackage(fast)
# Loading work.AhbEnvironmentPackage(fast)
# Loading work.AhbSlaveSequencePackage(fast)
# Loading work.AhbMasterSequencePackage(fast)
# Loading work.AhbVirtualSequencePackage(fast)
# Loading work.AhbBaseTestPackage(fast)
# Loading work.HvlTop(fast)
# Loading work.HdlTop(fast)
# Loading work.AhbInterface_sv_unit(fast)
# Loading work.AhbInterface(fast)
# Loading work.AhbMasterAgentBFM(fast)
# Loading work.AhbMasterDriverBFM_sv_unit(fast)
# Loading work.AhbMasterDriverBFM(fast)
# Loading work.AhbMasterMonitorBFM_sv_unit(fast)
# Loading work.AhbMasterMonitorBFM(fast)
# Loading work.AhbMasterCoverProperty_sv_unit(fast)
# Loading work.AhbMasterCoverProperty(fast)
# Loading work.AhbMasterAssertion_sv_unit(fast)
# Loading work.AhbMasterAssertion(fast)
# Loading work.AhbSlaveAgentBFM(fast)
# Loading work.AhbSlaveDriverBFM_sv_unit(fast)
# Loading work.AhbSlaveDriverBFM(fast)
# Loading work.AhbSlaveMonitorBFM_sv_unit(fast)
# Loading work.AhbSlaveMonitorBFM(fast)
# Loading work.AhbSlaveCoverProperty_sv_unit(fast)
# Loading work.AhbSlaveCoverProperty(fast)
# Loading work.AhbSlaveAssertion_sv_unit(fast)
# Loading work.AhbSlaveAssertion(fast)
# Loading mtiUvm.questa_uvm_pkg(fast)
# Loading /tools/mentor/questasim_10.6c/questasim/uvm-1.1d/linux/uvm_dpi.so
# log -r /*
#  add wave -r /*
#  coverage save -onexit -assert -directive -cvg -codeAll Ahb32bitWriteTest/Ahb32bitWriteTest_coverage.ucdb
#  run -all
# ----------------------------------------------------------------
# UVM-1.1d
# (C) 2007-2013 Mentor Graphics Corporation
# (C) 2007-2013 Cadence Design Systems, Inc.
# (C) 2006-2013 Synopsys, Inc.
# (C) 2011-2013 Cypress Semiconductor Corp.
# ----------------------------------------------------------------
# 
#   ***********       IMPORTANT RELEASE NOTES         ************
# 
#   You are using a version of the UVM library that has been compiled
#   with `UVM_NO_DEPRECATED undefined.
#   See http://www.eda.org/svdb/view.php?id=3313 for more details.
# 
#   You are using a version of the UVM library that has been compiled
#   with `UVM_OBJECT_MUST_HAVE_CONSTRUCTOR undefined.
#   See http://www.eda.org/svdb/view.php?id=3770 for more details.
# 
#       (Specify +UVM_NO_RELNOTES to turn off this notice)
# 
# UVM_INFO verilog_src/questa_uvm_pkg-1.2/src/questa_uvm_pkg.sv(215) @ 0: reporter [Questa UVM] QUESTA_UVM-1.2.3
# UVM_INFO verilog_src/questa_uvm_pkg-1.2/src/questa_uvm_pkg.sv(217) @ 0: reporter [Questa UVM]  questa_uvm::init(+struct)
# UVM_INFO @ 0: reporter [RNTST] Running test Ahb32bitWriteTest...
# UVM_INFO ../../src/hdlTop/HdlTop.sv(14) @ 0: reporter [HDL_TOP] HDL_TOP
# UVM_INFO ../../src/hdlTop/masterAgentBFM/AhbMasterAgentBFM.sv(10) @ 0: reporter [ahb master agent bfm] AHB MASTER AGENT BFM
# UVM_INFO ../../src/hdlTop/masterAgentBFM/AhbMasterDriverBFM.sv(33) @ 0: reporter [AHB_MASTER_DRIVER_BFM] AHB_MASTER_DRIVER_BFM
# UVM_INFO ../../src/hdlTop/masterAgentBFM/AhbMasterMonitorBFM.sv(39) @ 0: reporter [AHB_MASTER_MONITOR_BFM] AHB MASTER MONITOR BFM
# UVM_INFO ../../src/hdlTop/masterAgentBFM/AhbMasterCoverProperty.sv(32) @ 0: reporter [AhbMasterCoverProperty] AhbMasterCoverProperty
# UVM_INFO ../../src/hdlTop/masterAgentBFM/AhbMasterAssertion.sv(29) @ 0: reporter [MASTER_ASSERTIONS] MASTER_ASSERTIONS
# UVM_INFO ../../src/hdlTop/slaveAgentBFM/AhbSlaveAgentBFM.sv(10) @ 0: reporter [ahb slave agent bfm] AHB SLAVE AGENT BFM
# UVM_INFO ../../src/hdlTop/slaveAgentBFM/AhbSlaveDriverBFM.sv(38) @ 0: reporter [AHB_SLAVE_DRIVER_BFM] AHB_SLAVE_DRIVER_BFM
# UVM_INFO ../../src/hdlTop/slaveAgentBFM/AhbSlaveMonitorBFM.sv(39) @ 0: reporter [AHB_SLAVE_MONITOR_BFM] AHB_SLAVE_MONITOR_BFM
# UVM_INFO ../../src/hdlTop/slaveAgentBFM/AhbSlaveCoverProperty.sv(32) @ 0: reporter [AhbSlaveCoverProperty] AhbSlaveCoverProperty
# UVM_INFO ../../src/hvlTop/tb/test/AhbBaseTest.sv(49) @ 0: uvm_test_top [Ahb32bitWriteTest] 
# AHB_MASTER_CONFIG[0]
# ----------------------------------------------------------
# Name                     Type                  Size  Value
# ----------------------------------------------------------
# AhbMasterAgentConfig[0]  AhbMasterAgentConfig  -     @497 
#   is_active              integral              1     1    
#   hasCoverage            integral              1     1    
# ----------------------------------------------------------
# 
# UVM_INFO ../../src/hvlTop/tb/test/AhbBaseTest.sv(61) @ 0: uvm_test_top [Ahb32bitWriteTest] 
# AHB_SLAVE_CONFIG[0]
# -------------------------------------------------------------
# Name                    Type                 Size  Value     
# -------------------------------------------------------------
# AhbSlaveAgentConfig[0]  AhbSlaveAgentConfig  -     @502      
#   is_active             string               10    UVM_ACTIVE
#   hasCoverage           integral             1     1         
#   maximumAddress        integral             32    'h0       
#   minimumAddress        integral             32    'h0       
# -------------------------------------------------------------
# 
# UVM_INFO ../../src/hvlTop/tb/test/AhbBaseTest.sv(65) @ 0: uvm_test_top [Ahb32bitWriteTest] 
# AHB_ENV_CONFIG
# --------------------------------------------------------
# Name                   Type                  Size  Value
# --------------------------------------------------------
# ahbEnvironmentConfig   AhbEnvironmentConfig  -     @496 
#   hasScoreboard        integral              1     1    
#   hasVirtualSequencer  integral              1     1    
#   noOfMasters          integral              32    'd1  
#   noOfSlaves           integral              32    'd1  
# --------------------------------------------------------
# 
# UVM_INFO @ 0: reporter [UVMTOP] UVM testbench topology:
# -----------------------------------------------------------------------
# Name                            Type                        Size  Value
# -----------------------------------------------------------------------
# uvm_test_top                    Ahb32bitWriteTest           -     @473 
#   ahbEnvironment                AhbEnvironment              -     @511 
#     ahbMasterAgent[0]           AhbMasterAgent              -     @520 
#       ahbMasterCoverage         AhbMasterCoverage           -     @893 
#         analysis_imp            uvm_analysis_imp            -     @900 
#       ahbMasterDriverProxy      AhbMasterDriverProxy        -     @855 
#         rsp_port                uvm_analysis_port           -     @870 
#         seq_item_port           uvm_seq_item_pull_port      -     @862 
#       ahbMasterMonitorProxy     AhbMasterMonitorProxy       -     @878 
#         ahbMasterAnalysisPort   uvm_analysis_port           -     @885 
#       ahbMasterSequencer        AhbMasterSequencer          -     @746 
#         rsp_export              uvm_analysis_export         -     @753 
#         seq_item_export         uvm_seq_item_pull_imp       -     @847 
#         arbitration_queue       array                       0     -    
#         lock_queue              array                       0     -    
#         num_last_reqs           integral                    32    'd1  
#         num_last_rsps           integral                    32    'd1  
#     ahbScoreboard               AhbScoreboard               -     @644 
#       ahbMasterAnalysisFifo[0]  uvm_tlm_analysis_fifo #(T)  -     @651 
#         analysis_export         uvm_analysis_imp            -     @690 
#         get_ap                  uvm_analysis_port           -     @682 
#         get_peek_export         uvm_get_peek_imp            -     @666 
#         put_ap                  uvm_analysis_port           -     @674 
#         put_export              uvm_put_imp                 -     @658 
#       ahbSlaveAnalysisFifo[0]   uvm_tlm_analysis_fifo #(T)  -     @698 
#         analysis_export         uvm_analysis_imp            -     @737 
#         get_ap                  uvm_analysis_port           -     @729 
#         get_peek_export         uvm_get_peek_imp            -     @713 
#         put_ap                  uvm_analysis_port           -     @721 
#         put_export              uvm_put_imp                 -     @705 
#     ahbSlaveAgent[0]            AhbSlaveAgent               -     @528 
#       ahbSlaveCoverage          AhbSlaveCoverage            -     @1063
#         analysis_imp            uvm_analysis_imp            -     @1070
#       ahbSlaveDriverProxy       AhbSlaveDriverProxy         -     @1025
#         rsp_port                uvm_analysis_port           -     @1040
#         seq_item_port           uvm_seq_item_pull_port      -     @1032
#       ahbSlaveMonitorProxy      AhbSlaveMonitorProxy        -     @1048
#         ahbSlaveAnalysisPort    uvm_analysis_port           -     @1055
#       ahbSlaveSequencer         AhbSlaveSequencer           -     @916 
#         rsp_export              uvm_analysis_export         -     @923 
#         seq_item_export         uvm_seq_item_pull_imp       -     @1017
#         arbitration_queue       array                       0     -    
#         lock_queue              array                       0     -    
#         num_last_reqs           integral                    32    'd1  
#         num_last_rsps           integral                    32    'd1  
#     ahbVirtualSequencer         AhbVirtualSequencer         -     @535 
#       rsp_export                uvm_analysis_export         -     @542 
#       seq_item_export           uvm_seq_item_pull_imp       -     @636 
#       arbitration_queue         array                       0     -    
#       lock_queue                array                       0     -    
#       num_last_reqs             integral                    32    'd1  
#       num_last_rsps             integral                    32    'd1  
# -----------------------------------------------------------------------
# 
# UVM_INFO verilog_src/questa_uvm_pkg-1.2/src/questa_uvm_pkg.sv(277) @ 0: reporter [Questa UVM] End Of Elaboration
# UVM_INFO ../../src/hvlTop/tb/test/Ahb32bitWriteTest.sv(22) @ 0: uvm_test_top [Ahb32bitWriteTest] Ahb32bitWriteTest
# UVM_INFO ../../src/hvlTop/slaveAgent/AhbSlaveDriverProxy.sv(48) @ 0: uvm_test_top.ahbEnvironment.ahbSlaveAgent[0].ahbSlaveDriverProxy [AhbSlaveDriverProxy]  BEFORERESET 
#  
# UVM_INFO ../../src/hvlTop/masterAgent/AhbMasterMonitorProxy.sv(41) @ 0: uvm_test_top.ahbEnvironment.ahbMasterAgent[0].ahbMasterMonitorProxy [AhbMasterMonitorProxy] Inside the master_monitor_proxy
# UVM_INFO ../../src/hdlTop/masterAgentBFM/AhbMasterDriverBFM.sv(38) @ 15: reporter [AHB_MASTER_DRIVER_BFM] SYSTEM RESET DETECTED
# UVM_INFO ../../src/hdlTop/masterAgentBFM/AhbMasterMonitorBFM.sv(44) @ 15: reporter [AHB_MASTER_MONITOR_BFM] system reset detected
# UVM_INFO ../../src/hdlTop/slaveAgentBFM/AhbSlaveDriverBFM.sv(43) @ 15: reporter [AHB_SLAVE_DRIVER_BFM] SYSTEM RESET DETECTED
# UVM_INFO ../../src/hdlTop/slaveAgentBFM/AhbSlaveMonitorBFM.sv(44) @ 15: reporter [AHB_SLAVE_MONITOR_BFM] SYSTEM_RESET_DETECTED
# UVM_INFO ../../src/hdlTop/masterAgentBFM/AhbMasterDriverBFM.sv(41) @ 30: reporter [AHB_MASTER_DRIVER_BFM] SYSTEM RESET DEACTIVATED
# UVM_INFO ../../src/hdlTop/masterAgentBFM/AhbMasterMonitorBFM.sv(47) @ 30: reporter [AHB_MASTER_MONITOR_BFM] system reset deactivated
# UVM_INFO ../../src/hdlTop/slaveAgentBFM/AhbSlaveDriverBFM.sv(46) @ 30: reporter [AHB_SLAVE_DRIVER_BFM] SYSTEM RESET DEACTIVATED
# UVM_INFO ../../src/hdlTop/slaveAgentBFM/AhbSlaveMonitorBFM.sv(47) @ 30: reporter [AHB_SLAVE_MONITOR_BFM] SYSTEM_RESET_DEACTIVATED
# ---------------------------------------------------------
# Name                Type                 Size  Value     
# ---------------------------------------------------------
# req                 AhbSlaveTransaction  -     @1120     
#   haddr             integral             32    'h0       
#   hselx             integral             1     'b0       
#   hburst            string               0     ""        
#   hmastlock         integral             1     'h0       
#   hprot             string               0     ""        
#   hsize             string               0     ""        
#   hnonsec           integral             1     'h0       
#   hexcl             integral             1     'h0       
#   hmaster           integral             1     'd0       
#   htrans            string               0     ""        
#   hwrite            string               4     READ      
#   hreadyout         integral             1     'h0       
#   hresp             string               0     ""        
#   hexokay           integral             1     'h0       
#   hready            integral             1     'h0       
#   choosePacketData  integral             1     'd0       
#   hrdata[0]         integral             32    'hc8311946
#   hrdata[1]         integral             32    'hb8153115
#   hrdata[2]         integral             32    'h288cc6  
#   hrdata[3]         integral             32    'h5bea376e
#   hrdata[4]         integral             32    'hd9d83c42
#   hrdata[5]         integral             32    'h932e3db9
#   hrdata[6]         integral             32    'h287f7d7 
#   hrdata[7]         integral             32    'h7f38e27c
#   hrdata[8]         integral             32    'h983be4d3
#   hrdata[9]         integral             32    'hb81e7e0f
#   hrdata[10]        integral             32    'hd1067dc3
#   hrdata[11]        integral             32    'he49f0852
#   hrdata[12]        integral             32    'h7d0a616a
#   hrdata[13]        integral             32    'h21c128ba
#   hrdata[14]        integral             32    'hace10f6 
#   hrdata[15]        integral             32    'h87943005
# ---------------------------------------------------------
# UVM_INFO ../../src/hvlTop/masterAgent/masterSequences/AhbMasterSequence.sv(125) @ 30: uvm_test_top.ahbEnvironment.ahbMasterAgent[0].ahbMasterSequencer@@ahbMasterSequence [AHB] req is of type: AhbMasterTransaction
# UVM_INFO ../../src/hvlTop/slaveAgent/AhbSlaveSequenceItemConverter.sv(65) @ 30: reporter [ahbSlaveSequeceItemconverterClass] After randomizing noofwaitstate = 00000000000000000000000000000000
# UVM_INFO ../../src/hvlTop/slaveAgent/AhbSlaveSequenceItemConverter.sv(95) @ 30: reporter [ahbSlaveSequeceItemconverterClass] -------------------------------------------------------------
# UVM_INFO ../../src/hdlTop/slaveAgentBFM/AhbSlaveDriverBFM.sv(52) @ 30: reporter [AHB_SLAVE_DRIVER_BFM] DRIVE TO BFM TASK
# UVM_INFO ../../src/hvlTop/masterAgent/AhbMasterDriverProxy.sv(58) @ 30: uvm_test_top.ahbEnvironment.ahbMasterAgent[0].ahbMasterDriverProxy [AhbMasterDriverProxy] REQ-MASTERTX 
#  ---------------------------------------------------------------------------
# Name                      Type                  Size  Value                
# ---------------------------------------------------------------------------
# req                       AhbMasterTransaction  -     @1124                
#   haddr                   integral              32    'hd5d37a18           
#   hselx                   integral              1     'b1                  
#   hburst                  string                6     INCR16               
#   hmastlock               integral              1     'h1                  
#   hprot                   string                21    NORMAL_NONSECURE_DATA
#   hsize                   string                8     HALFWORD             
#   hnonsec                 integral              1     'h0                  
#   hexcl                   integral              1     'h0                  
#   hmaster                 integral              1     'd0                  
#   htrans                  string                6     NONSEQ               
#   hwrite                  string                5     WRITE                
#   hreadyout               integral              1     'h0                  
#   hresp                   string                0     ""                   
#   hexokay                 integral              1     'h0                  
#   hready                  integral              1     'h0                  
#   noOfwaitStatesDetected  integral              32    'h0                  
#   hwdata[0]               integral              32    'h3c895ac            
#   hwdata[1]               integral              32    'h17b73c02           
#   hwdata[2]               integral              32    'hbf3f22ad           
#   hwdata[3]               integral              32    'h3224980c           
#   hwdata[4]               integral              32    'had79d174           
#   hwdata[5]               integral              32    'hcc3f89da           
#   hwdata[6]               integral              32    'h271f8ba            
#   hwdata[7]               integral              32    'h95759026           
#   hwdata[8]               integral              32    'h66e04d3            
#   hwdata[9]               integral              32    'h81b51ab9           
#   hwdata[10]              integral              32    'h9c44f9ca           
#   hwdata[11]              integral              32    'h856485f6           
#   hwdata[12]              integral              32    'h45e6dd2b           
#   hwdata[13]              integral              32    'h35cc3984           
#   hwdata[14]              integral              32    'hb5a2d220           
#   hwdata[15]              integral              32    'h4ba60edf           
#   hwstrb[0]               integral              4     'b101                
#   hwstrb[1]               integral              4     'b1001               
#   hwstrb[2]               integral              4     'b1010               
#   hwstrb[3]               integral              4     'b11                 
#   hwstrb[4]               integral              4     'b101                
#   hwstrb[5]               integral              4     'b1010               
#   hwstrb[6]               integral              4     'b110                
#   hwstrb[7]               integral              4     'b101                
#   hwstrb[8]               integral              4     'b1100               
#   hwstrb[9]               integral              4     'b1001               
#   hwstrb[10]              integral              4     'b1100               
#   hwstrb[11]              integral              4     'b101                
#   hwstrb[12]              integral              4     'b110                
#   hwstrb[13]              integral              4     'b1001               
#   hwstrb[14]              integral              4     'b11                 
#   hwstrb[15]              integral              4     'b1001               
#   busyControl[0]          integral              1     'h0                  
#   busyControl[1]          integral              1     'h0                  
#   busyControl[2]          integral              1     'h0                  
#   busyControl[3]          integral              1     'h0                  
#   busyControl[4]          integral              1     'h0                  
#   busyControl[5]          integral              1     'h0                  
#   busyControl[6]          integral              1     'h0                  
#   busyControl[7]          integral              1     'h0                  
#   busyControl[8]          integral              1     'h0                  
#   busyControl[9]          integral              1     'h0                  
#   busyControl[10]         integral              1     'h0                  
#   busyControl[11]         integral              1     'h0                  
#   busyControl[12]         integral              1     'h0                  
#   busyControl[13]         integral              1     'h0                  
#   busyControl[14]         integral              1     'h0                  
#   busyControl[15]         integral              1     'h0                  
# ---------------------------------------------------------------------------
# 
# UVM_INFO ../../src/hdlTop/masterAgentBFM/AhbMasterDriverBFM.sv(47) @ 30: reporter [AHB_MASTER_DRIVER_BFM] DRIVE TO BFM TASK
# &&&&values inside master monitor proxy '{haddr:x, hselx:x, hburst:x, hmastlock:x, hprot:x, hsize:x, hnonsec:x, hexcl:x, hmaster:x, htrans:IDLE, hwdata:'{x, x, x, x, x, x, x, x, x, x, x, x, x, x, x, x, x}, hwstrb:'{0, 0, 0, 0, 0, 0, 0, 0, 0, 0, 0, 0, 0, 0, 0, 0, x}, hwrite:READ, hrdata:'{0, 0, 0, 0, 0, 0, 0, 0, 0, 0, 0, 0, 0, 0, 0, 0, x}, hreadyout:x, hresp:x, hexokay:x, hready:x, noOfWaitStates:0, busyControl:0}&&&
# UVM_INFO ../../src/hvlTop/masterAgent/AhbMasterMonitorProxy.sv(58) @ 50: uvm_test_top.ahbEnvironment.ahbMasterAgent[0].ahbMasterMonitorProxy [AhbMasterMonitorProxy] Sending packet via analysis_port: , 
#  -----------------------------------------------------------
# Name                      Type                  Size  Value
# -----------------------------------------------------------
# ahbMasterPacket           AhbMasterTransaction  -     @1200
#   haddr                   integral              32    'h0  
#   hselx                   integral              1     'b0  
#   hburst                  string                0     ""   
#   hmastlock               integral              1     'h0  
#   hprot                   string                0     ""   
#   hsize                   string                0     ""   
#   hnonsec                 integral              1     'h0  
#   hexcl                   integral              1     'h0  
#   hmaster                 integral              1     'd0  
#   htrans                  string                4     IDLE 
#   hwrite                  string                4     READ 
#   hreadyout               integral              1     'h0  
#   hresp                   string                0     ""   
#   hexokay                 integral              1     'h0  
#   hready                  integral              1     'h0  
#   noOfwaitStatesDetected  integral              32    'h0  
# -----------------------------------------------------------
# 
# UVM_INFO ../../src/hvlTop/masterAgent/AhbMasterCoverage.sv(180) @ 50: uvm_test_top.ahbEnvironment.ahbMasterAgent[0].ahbMasterCoverage [AhbMasterCoverage] Before calling SAMPLE METHOD
# UVM_INFO ../../src/hvlTop/masterAgent/AhbMasterCoverage.sv(182) @ 50: uvm_test_top.ahbEnvironment.ahbMasterAgent[0].ahbMasterCoverage [AhbMasterCoverage] After calling SAMPLE METHOD
# &&&&values inside monitor proxy '{haddr:x, hselx:x, hburst:x, hmastlock:x, hprot:x, hsize:x, hnonsec:x, hexcl:x, hmaster:x, htrans:IDLE, hwdata:'{x, x, x, x, x, x, x, x, x, x, x, x, x, x, x, x, x}, hwstrb:'{x, x, x, x, x, x, x, x, x, x, x, x, x, x, x, x, x}, hwrite:READ, hrdata:'{0, 0, 0, 0, 0, 0, 0, 0, 0, 0, 0, 0, 0, 0, 0, 0, x}, hreadyout:x, hresp:x, hexokay:x, hready:x, noOfWaitStates:0, busyControl:0}&&&
# UVM_INFO ../../src/hvlTop/slaveAgent/AhbSlaveSequenceItemConverter.sv(149) @ 50: reporter [ahbSlaveSequeceItemconverterClass] After randomizing noofwaitstate = 00000000000000000000000000000000
# UVM_INFO ../../src/hvlTop/slaveAgent/AhbSlaveSequenceItemConverter.sv(177) @ 50: reporter [ahbSlaveSequeceItemconverterClass] -------------------------------------------------------------
# UVM_INFO ../../src/hvlTop/slaveAgent/AhbSlaveMonitorProxy.sv(57) @ 50: uvm_test_top.ahbEnvironment.ahbSlaveAgent[0].ahbSlaveMonitorProxy [AhbSlaveMonitorProxy] Sending packet via analysis_port: , 
#  ----------------------------------------------------
# Name                Type                 Size  Value
# ----------------------------------------------------
# slave Packet        AhbSlaveTransaction  -     @1204
#   haddr             integral             32    'h0  
#   hselx             integral             1     'b0  
#   hburst            string               0     ""   
#   hmastlock         integral             1     'h0  
#   hprot             string               0     ""   
#   hsize             string               0     ""   
#   hnonsec           integral             1     'h0  
#   hexcl             integral             1     'h0  
#   hmaster           integral             1     'd0  
#   htrans            string               4     IDLE 
#   hwrite            string               4     READ 
#   hreadyout         integral             1     'h0  
#   hresp             string               0     ""   
#   hexokay           integral             1     'h0  
#   hready            integral             1     'h0  
#   choosePacketData  integral             1     'd0  
# ----------------------------------------------------
# 
# UVM_INFO ../../src/hvlTop/slaveAgent/AhbSlaveCoverage.sv(61) @ 50: uvm_test_top.ahbEnvironment.ahbSlaveAgent[0].ahbSlaveCoverage [AhbSlaveCoverage] AHB SLAVE COVERAGE
# UVM_INFO ../../src/hvlTop/environment/AhbScoreboard.sv(78) @ 50: uvm_test_top.ahbEnvironment.ahbScoreboard [AhbScoreboard] after calling master's analysis fifo get method
# UVM_INFO ../../src/hvlTop/environment/AhbScoreboard.sv(88) @ 50: uvm_test_top.ahbEnvironment.ahbScoreboard [AhbScoreboard] after calling slave's analysis fifo get method
# UVM_INFO ../../src/hdlTop/slaveAgentBFM/AhbSlaveDriverBFM.sv(60) @ 50: reporter [AHB_SLAVE_DRIVER_BFM] AFTERHSELASSERTED HTRANSFER = 2
# UVM_INFO ../../src/hdlTop/slaveAgentBFM/AhbSlaveDriverBFM.sv(100) @ 50: reporter [AHB_SLAVE_DRIVER_BFM] STARTEDBURSTTRANSFERTASK
# &&&&values inside master monitor proxy '{haddr:3587406360, hselx:1, hburst:INCR16, hmastlock:1, hprot:NORMAL_NONSECURE_DATA, hsize:HALFWORD, hnonsec:x, hexcl:x, hmaster:x, htrans:NONSEQ, hwdata:'{0, 0, 0, 0, 0, 0, 0, 0, 0, 0, 0, 0, 0, 0, 0, 0, x}, hwstrb:'{0, 0, 0, 0, 0, 0, 0, 0, 0, 0, 0, 0, 0, 0, 0, 0, 5}, hwrite:WRITE, hrdata:'{0, 0, 0, 0, 0, 0, 0, 0, 0, 0, 0, 0, 0, 0, 0, 0, x}, hreadyout:x, hresp:x, hexokay:x, hready:x, noOfWaitStates:0, busyControl:0}&&&
# UVM_INFO ../../src/hvlTop/masterAgent/AhbMasterMonitorProxy.sv(58) @ 70: uvm_test_top.ahbEnvironment.ahbMasterAgent[0].ahbMasterMonitorProxy [AhbMasterMonitorProxy] Sending packet via analysis_port: , 
#  ---------------------------------------------------------------------------
# Name                      Type                  Size  Value                
# ---------------------------------------------------------------------------
# ahbMasterPacket           AhbMasterTransaction  -     @1208                
#   haddr                   integral              32    'hd5d37a18           
#   hselx                   integral              1     'b1                  
#   hburst                  string                6     INCR16               
#   hmastlock               integral              1     'h1                  
#   hprot                   string                21    NORMAL_NONSECURE_DATA
#   hsize                   string                8     HALFWORD             
#   hnonsec                 integral              1     'h0                  
#   hexcl                   integral              1     'h0                  
#   hmaster                 integral              1     'd0                  
#   htrans                  string                6     NONSEQ               
#   hwrite                  string                5     WRITE                
#   hreadyout               integral              1     'h0                  
#   hresp                   string                0     ""                   
#   hexokay                 integral              1     'h0                  
#   hready                  integral              1     'h0                  
#   noOfwaitStatesDetected  integral              32    'h0                  
# ---------------------------------------------------------------------------
# 
# UVM_INFO ../../src/hvlTop/masterAgent/AhbMasterCoverage.sv(180) @ 70: uvm_test_top.ahbEnvironment.ahbMasterAgent[0].ahbMasterCoverage [AhbMasterCoverage] Before calling SAMPLE METHOD
# UVM_INFO ../../src/hvlTop/masterAgent/AhbMasterCoverage.sv(182) @ 70: uvm_test_top.ahbEnvironment.ahbMasterAgent[0].ahbMasterCoverage [AhbMasterCoverage] After calling SAMPLE METHOD
# UVM_INFO ../../src/hdlTop/slaveAgentBFM/AhbSlaveDriverBFM.sv(162) @ 70: reporter [AHB_SLAVE_DRIVER_BFM] Bus is now out of wait cycles
# UVM_INFO ../../src/hdlTop/slaveAgentBFM/AhbSlaveDriverBFM.sv(121) @ 70: reporter [AHB_SLAVE_DRIVER_BFM] Busy = 0
# &&&&values inside monitor proxy '{haddr:3587406360, hselx:1, hburst:INCR16, hmastlock:x, hprot:NORMAL_NONSECURE_DATA, hsize:HALFWORD, hnonsec:0, hexcl:x, hmaster:x, htrans:NONSEQ, hwdata:'{0, 0, 0, 0, 0, 0, 0, 0, 0, 0, 0, 0, 0, 0, 0, 0, x}, hwstrb:'{0, 0, 0, 0, 0, 0, 0, 0, 0, 0, 0, 0, 0, 0, 0, 0, 5}, hwrite:WRITE, hrdata:'{0, 0, 0, 0, 0, 0, 0, 0, 0, 0, 0, 0, 0, 0, 0, 0, x}, hreadyout:x, hresp:x, hexokay:x, hready:x, noOfWaitStates:0, busyControl:0}&&&
# UVM_INFO ../../src/hvlTop/slaveAgent/AhbSlaveSequenceItemConverter.sv(149) @ 70: reporter [ahbSlaveSequeceItemconverterClass] After randomizing noofwaitstate = 00000000000000000000000000000000
# UVM_INFO ../../src/hvlTop/slaveAgent/AhbSlaveSequenceItemConverter.sv(177) @ 70: reporter [ahbSlaveSequeceItemconverterClass] -------------------------------------------------------------
# UVM_INFO ../../src/hvlTop/slaveAgent/AhbSlaveMonitorProxy.sv(57) @ 70: uvm_test_top.ahbEnvironment.ahbSlaveAgent[0].ahbSlaveMonitorProxy [AhbSlaveMonitorProxy] Sending packet via analysis_port: , 
#  --------------------------------------------------------------------
# Name                Type                 Size  Value                
# --------------------------------------------------------------------
# slave Packet        AhbSlaveTransaction  -     @1212                
#   haddr             integral             32    'hd5d37a18           
#   hselx             integral             1     'b1                  
#   hburst            string               6     INCR16               
#   hmastlock         integral             1     'h0                  
#   hprot             string               21    NORMAL_NONSECURE_DATA
#   hsize             string               8     HALFWORD             
#   hnonsec           integral             1     'h0                  
#   hexcl             integral             1     'h0                  
#   hmaster           integral             1     'd0                  
#   htrans            string               6     NONSEQ               
#   hwrite            string               5     WRITE                
#   hreadyout         integral             1     'h0                  
#   hresp             string               0     ""                   
#   hexokay           integral             1     'h0                  
#   hready            integral             1     'h0                  
#   choosePacketData  integral             1     'd0                  
# --------------------------------------------------------------------
# 
# UVM_INFO ../../src/hvlTop/slaveAgent/AhbSlaveCoverage.sv(61) @ 70: uvm_test_top.ahbEnvironment.ahbSlaveAgent[0].ahbSlaveCoverage [AhbSlaveCoverage] AHB SLAVE COVERAGE
# UVM_INFO ../../src/hvlTop/environment/AhbScoreboard.sv(78) @ 70: uvm_test_top.ahbEnvironment.ahbScoreboard [AhbScoreboard] after calling master's analysis fifo get method
# UVM_INFO ../../src/hvlTop/environment/AhbScoreboard.sv(88) @ 70: uvm_test_top.ahbEnvironment.ahbScoreboard [AhbScoreboard] after calling slave's analysis fifo get method
# ** Info: Hwstrb valid
#    Time: 70 ns Started: 70 ns  Scope: HdlTop.ahbMasterAgentBFM.ahbMasterMonitorBFM.ahb_assert File: ../../src/hdlTop/masterAgentBFM/AhbMasterAssertion.sv Line: 198
# &&&&values inside master monitor proxy '{haddr:3587406360, hselx:1, hburst:INCR16, hmastlock:1, hprot:NORMAL_NONSECURE_DATA, hsize:HALFWORD, hnonsec:x, hexcl:x, hmaster:x, htrans:NONSEQ, hwdata:'{0, 0, 0, 0, 0, 0, 0, 0, 0, 0, 0, 0, 0, 0, 0, 0, x}, hwstrb:'{0, 0, 0, 0, 0, 0, 0, 0, 0, 0, 0, 0, 0, 0, 0, 0, 5}, hwrite:WRITE, hrdata:'{0, 0, 0, 0, 0, 0, 0, 0, 0, 0, 0, 0, 0, 0, 0, 0, x}, hreadyout:x, hresp:x, hexokay:x, hready:1, noOfWaitStates:0, busyControl:0}&&&
# UVM_INFO ../../src/hvlTop/masterAgent/AhbMasterMonitorProxy.sv(58) @ 90: uvm_test_top.ahbEnvironment.ahbMasterAgent[0].ahbMasterMonitorProxy [AhbMasterMonitorProxy] Sending packet via analysis_port: , 
#  ---------------------------------------------------------------------------
# Name                      Type                  Size  Value                
# ---------------------------------------------------------------------------
# ahbMasterPacket           AhbMasterTransaction  -     @1216                
#   haddr                   integral              32    'hd5d37a18           
#   hselx                   integral              1     'b1                  
#   hburst                  string                6     INCR16               
#   hmastlock               integral              1     'h1                  
#   hprot                   string                21    NORMAL_NONSECURE_DATA
#   hsize                   string                8     HALFWORD             
#   hnonsec                 integral              1     'h0                  
#   hexcl                   integral              1     'h0                  
#   hmaster                 integral              1     'd0                  
#   htrans                  string                6     NONSEQ               
#   hwrite                  string                5     WRITE                
#   hreadyout               integral              1     'h0                  
#   hresp                   string                0     ""                   
#   hexokay                 integral              1     'h0                  
#   hready                  integral              1     'h1                  
#   noOfwaitStatesDetected  integral              32    'h0                  
# ---------------------------------------------------------------------------
# 
# UVM_INFO ../../src/hvlTop/masterAgent/AhbMasterCoverage.sv(180) @ 90: uvm_test_top.ahbEnvironment.ahbMasterAgent[0].ahbMasterCoverage [AhbMasterCoverage] Before calling SAMPLE METHOD
# UVM_INFO ../../src/hvlTop/masterAgent/AhbMasterCoverage.sv(182) @ 90: uvm_test_top.ahbEnvironment.ahbMasterAgent[0].ahbMasterCoverage [AhbMasterCoverage] After calling SAMPLE METHOD
# UVM_INFO ../../src/hdlTop/slaveAgentBFM/AhbSlaveDriverBFM.sv(121) @ 90: reporter [AHB_SLAVE_DRIVER_BFM] Busy = 0
# &&&&values inside monitor proxy '{haddr:3587406360, hselx:1, hburst:INCR16, hmastlock:x, hprot:NORMAL_NONSECURE_DATA, hsize:HALFWORD, hnonsec:0, hexcl:x, hmaster:x, htrans:NONSEQ, hwdata:'{0, 0, 0, 0, 0, 0, 0, 0, 0, 0, 0, 0, 0, 0, 0, 0, x}, hwstrb:'{0, 0, 0, 0, 0, 0, 0, 0, 0, 0, 0, 0, 0, 0, 0, 0, 5}, hwrite:WRITE, hrdata:'{0, 0, 0, 0, 0, 0, 0, 0, 0, 0, 0, 0, 0, 0, 0, 0, x}, hreadyout:1, hresp:x, hexokay:x, hready:x, noOfWaitStates:0, busyControl:0}&&&
# UVM_INFO ../../src/hvlTop/slaveAgent/AhbSlaveSequenceItemConverter.sv(149) @ 90: reporter [ahbSlaveSequeceItemconverterClass] After randomizing noofwaitstate = 00000000000000000000000000000000
# UVM_INFO ../../src/hvlTop/slaveAgent/AhbSlaveSequenceItemConverter.sv(177) @ 90: reporter [ahbSlaveSequeceItemconverterClass] -------------------------------------------------------------
# UVM_INFO ../../src/hvlTop/slaveAgent/AhbSlaveMonitorProxy.sv(57) @ 90: uvm_test_top.ahbEnvironment.ahbSlaveAgent[0].ahbSlaveMonitorProxy [AhbSlaveMonitorProxy] Sending packet via analysis_port: , 
#  --------------------------------------------------------------------
# Name                Type                 Size  Value                
# --------------------------------------------------------------------
# slave Packet        AhbSlaveTransaction  -     @1220                
#   haddr             integral             32    'hd5d37a18           
#   hselx             integral             1     'b1                  
#   hburst            string               6     INCR16               
#   hmastlock         integral             1     'h0                  
#   hprot             string               21    NORMAL_NONSECURE_DATA
#   hsize             string               8     HALFWORD             
#   hnonsec           integral             1     'h0                  
#   hexcl             integral             1     'h0                  
#   hmaster           integral             1     'd0                  
#   htrans            string               6     NONSEQ               
#   hwrite            string               5     WRITE                
#   hreadyout         integral             1     'h1                  
#   hresp             string               0     ""                   
#   hexokay           integral             1     'h0                  
#   hready            integral             1     'h0                  
#   choosePacketData  integral             1     'd0                  
# --------------------------------------------------------------------
# 
# UVM_INFO ../../src/hvlTop/slaveAgent/AhbSlaveCoverage.sv(61) @ 90: uvm_test_top.ahbEnvironment.ahbSlaveAgent[0].ahbSlaveCoverage [AhbSlaveCoverage] AHB SLAVE COVERAGE
# UVM_INFO ../../src/hvlTop/environment/AhbScoreboard.sv(78) @ 90: uvm_test_top.ahbEnvironment.ahbScoreboard [AhbScoreboard] after calling master's analysis fifo get method
# UVM_INFO ../../src/hvlTop/environment/AhbScoreboard.sv(88) @ 90: uvm_test_top.ahbEnvironment.ahbScoreboard [AhbScoreboard] after calling slave's analysis fifo get method
# UVM_INFO ../../src/hvlTop/environment/AhbScoreboard.sv(94) @ 90: uvm_test_top.ahbEnvironment.ahbScoreboard [AhbScoreboard] --
# -----------------------------------------------SCOREBOARD COMPARISIONS--------------------------------------------------
# UVM_INFO ../../src/hvlTop/environment/AhbScoreboard.sv(97) @ 90: uvm_test_top.ahbEnvironment.ahbScoreboard [AhbScoreboard] ahb HWDATA from master and slave is equal
# UVM_INFO ../../src/hvlTop/environment/AhbScoreboard.sv(99) @ 90: uvm_test_top.ahbEnvironment.ahbScoreboard [SB  HWDATA MATCHED] Master HWDATA =  and Slave HWDATA = 
# UVM_INFO ../../src/hvlTop/environment/AhbScoreboard.sv(112) @ 90: uvm_test_top.ahbEnvironment.ahbScoreboard [AhbScoreboard] ahb HADDR from master and slave is equal
# UVM_INFO ../../src/hvlTop/environment/AhbScoreboard.sv(114) @ 90: uvm_test_top.ahbEnvironment.ahbScoreboard [SB HADDR MATCH] Master HADDR = 'hd5d37a18 and Slave HADDR = 'hd5d37a18
# UVM_INFO ../../src/hvlTop/environment/AhbScoreboard.sv(126) @ 90: uvm_test_top.ahbEnvironment.ahbScoreboard [AhbScoreboard] ahb HWRITE from master and slave is equal
# UVM_INFO ../../src/hvlTop/environment/AhbScoreboard.sv(128) @ 90: uvm_test_top.ahbEnvironment.ahbScoreboard [SB HWRITE MATCH] Master HWRITE = 'h1 and Slave hwrite = 'h1
# UVM_INFO ../../src/hvlTop/environment/AhbScoreboard.sv(166) @ 90: uvm_test_top.ahbEnvironment.ahbScoreboard [AhbScoreboard] --
# -----------------------------------------------END OF SCOREBOARD COMPARISIONS---------------------------------------
# ** Info: HMASTLOCK is asserted during a locked transfer
#    Time: 90 ns Started: 90 ns  Scope: HdlTop.ahbMasterAgentBFM.ahbMasterMonitorBFM.ahb_assert File: ../../src/hdlTop/masterAgentBFM/AhbMasterAssertion.sv Line: 104
# ** Info: HADDR is aligned based on HSIZE
#    Time: 90 ns Started: 90 ns  Scope: HdlTop.ahbMasterAgentBFM.ahbMasterMonitorBFM.ahb_assert File: ../../src/hdlTop/masterAgentBFM/AhbMasterAssertion.sv Line: 57
# ** Info: HSIZE matches the data width supported by the slave!
#    Time: 90 ns Started: 90 ns  Scope: HdlTop.ahbMasterAgentBFM.ahbMasterMonitorBFM.ahb_assert File: ../../src/hdlTop/masterAgentBFM/AhbMasterAssertion.sv Line: 180
# ** Info: Valid burst type!
#    Time: 90 ns Started: 90 ns  Scope: HdlTop.ahbMasterAgentBFM.ahbMasterMonitorBFM.ahb_assert File: ../../src/hdlTop/masterAgentBFM/AhbMasterAssertion.sv Line: 189
# ** Info: Address Aligned with size
#    Time: 90 ns Started: 90 ns  Scope: HdlTop.ahbMasterAgentBFM.ahbMasterMonitorBFM.ahb_cover File: ../../src/hdlTop/masterAgentBFM/AhbMasterCoverProperty.sv Line: 58
# ** Info: Hwstrb is valid
#    Time: 90 ns Started: 90 ns  Scope: HdlTop.ahbMasterAgentBFM.ahbMasterMonitorBFM.ahb_cover File: ../../src/hdlTop/masterAgentBFM/AhbMasterCoverProperty.sv Line: 98
# ** Info: Hwstrb valid
#    Time: 90 ns Started: 90 ns  Scope: HdlTop.ahbMasterAgentBFM.ahbMasterMonitorBFM.ahb_assert File: ../../src/hdlTop/masterAgentBFM/AhbMasterAssertion.sv Line: 198
# ** Info: HTRANS is Valid
#    Time: 90 ns Started: 70 ns  Scope: HdlTop.ahbMasterAgentBFM.ahbMasterMonitorBFM.ahb_assert File: ../../src/hdlTop/masterAgentBFM/AhbMasterAssertion.sv Line: 47
# &&&&values inside master monitor proxy '{haddr:3587406362, hselx:1, hburst:INCR16, hmastlock:1, hprot:NORMAL_NONSECURE_DATA, hsize:HALFWORD, hnonsec:x, hexcl:x, hmaster:x, htrans:SEQ, hwdata:'{0, 0, 0, 0, 0, 0, 0, 0, 0, 0, 0, 0, 0, 0, 0, 0, 13107372}, hwstrb:'{0, 0, 0, 0, 0, 0, 0, 0, 0, 0, 0, 0, 0, 0, 0, 0, 9}, hwrite:WRITE, hrdata:'{0, 0, 0, 0, 0, 0, 0, 0, 0, 0, 0, 0, 0, 0, 0, 0, x}, hreadyout:x, hresp:OKAY, hexokay:x, hready:1, noOfWaitStates:0, busyControl:0}&&&
# UVM_INFO ../../src/hvlTop/masterAgent/AhbMasterMonitorProxy.sv(58) @ 110: uvm_test_top.ahbEnvironment.ahbMasterAgent[0].ahbMasterMonitorProxy [AhbMasterMonitorProxy] Sending packet via analysis_port: , 
#  ---------------------------------------------------------------------------
# Name                      Type                  Size  Value                
# ---------------------------------------------------------------------------
# ahbMasterPacket           AhbMasterTransaction  -     @1224                
#   haddr                   integral              32    'hd5d37a1a           
#   hselx                   integral              1     'b1                  
#   hburst                  string                6     INCR16               
#   hmastlock               integral              1     'h1                  
#   hprot                   string                21    NORMAL_NONSECURE_DATA
#   hsize                   string                8     HALFWORD             
#   hnonsec                 integral              1     'h0                  
#   hexcl                   integral              1     'h0                  
#   hmaster                 integral              1     'd0                  
#   htrans                  string                3     SEQ                  
#   hwrite                  string                5     WRITE                
#   hreadyout               integral              1     'h0                  
#   hresp                   string                4     OKAY                 
#   hexokay                 integral              1     'h0                  
#   hready                  integral              1     'h1                  
#   noOfwaitStatesDetected  integral              32    'h0                  
#   hwdata[0]               integral              32    'hc800ac             
#   hwstrb[0]               integral              4     'b1001               
# ---------------------------------------------------------------------------
# 
# UVM_INFO ../../src/hvlTop/masterAgent/AhbMasterCoverage.sv(180) @ 110: uvm_test_top.ahbEnvironment.ahbMasterAgent[0].ahbMasterCoverage [AhbMasterCoverage] Before calling SAMPLE METHOD
# UVM_INFO ../../src/hvlTop/masterAgent/AhbMasterCoverage.sv(182) @ 110: uvm_test_top.ahbEnvironment.ahbMasterAgent[0].ahbMasterCoverage [AhbMasterCoverage] After calling SAMPLE METHOD
# UVM_INFO ../../src/hdlTop/slaveAgentBFM/AhbSlaveDriverBFM.sv(121) @ 110: reporter [AHB_SLAVE_DRIVER_BFM] Busy = 0
# &&&&values inside monitor proxy '{haddr:3587406362, hselx:1, hburst:INCR16, hmastlock:x, hprot:NORMAL_NONSECURE_DATA, hsize:HALFWORD, hnonsec:0, hexcl:x, hmaster:x, htrans:SEQ, hwdata:'{0, 0, 0, 0, 0, 0, 0, 0, 0, 0, 0, 0, 0, 0, 0, 0, 13107372}, hwstrb:'{0, 0, 0, 0, 0, 0, 0, 0, 0, 0, 0, 0, 0, 0, 0, 0, 9}, hwrite:WRITE, hrdata:'{0, 0, 0, 0, 0, 0, 0, 0, 0, 0, 0, 0, 0, 0, 0, 0, x}, hreadyout:1, hresp:OKAY, hexokay:x, hready:x, noOfWaitStates:0, busyControl:0}&&&
# UVM_INFO ../../src/hvlTop/slaveAgent/AhbSlaveSequenceItemConverter.sv(149) @ 110: reporter [ahbSlaveSequeceItemconverterClass] After randomizing noofwaitstate = 00000000000000000000000000000000
# UVM_INFO ../../src/hvlTop/slaveAgent/AhbSlaveSequenceItemConverter.sv(177) @ 110: reporter [ahbSlaveSequeceItemconverterClass] -------------------------------------------------------------
# UVM_INFO ../../src/hvlTop/slaveAgent/AhbSlaveMonitorProxy.sv(57) @ 110: uvm_test_top.ahbEnvironment.ahbSlaveAgent[0].ahbSlaveMonitorProxy [AhbSlaveMonitorProxy] Sending packet via analysis_port: , 
#  --------------------------------------------------------------------
# Name                Type                 Size  Value                
# --------------------------------------------------------------------
# slave Packet        AhbSlaveTransaction  -     @1228                
#   haddr             integral             32    'hd5d37a1a           
#   hselx             integral             1     'b1                  
#   hburst            string               6     INCR16               
#   hmastlock         integral             1     'h0                  
#   hprot             string               21    NORMAL_NONSECURE_DATA
#   hsize             string               8     HALFWORD             
#   hnonsec           integral             1     'h0                  
#   hexcl             integral             1     'h0                  
#   hmaster           integral             1     'd0                  
#   htrans            string               3     SEQ                  
#   hwrite            string               5     WRITE                
#   hreadyout         integral             1     'h1                  
#   hresp             string               4     OKAY                 
#   hexokay           integral             1     'h0                  
#   hready            integral             1     'h0                  
#   choosePacketData  integral             1     'd0                  
#   hwdata[0]         integral             32    'hc800ac             
#   hwstrb[0]         integral             4     'b1001               
# --------------------------------------------------------------------
# 
# UVM_INFO ../../src/hvlTop/slaveAgent/AhbSlaveCoverage.sv(61) @ 110: uvm_test_top.ahbEnvironment.ahbSlaveAgent[0].ahbSlaveCoverage [AhbSlaveCoverage] AHB SLAVE COVERAGE
# UVM_INFO ../../src/hvlTop/environment/AhbScoreboard.sv(78) @ 110: uvm_test_top.ahbEnvironment.ahbScoreboard [AhbScoreboard] after calling master's analysis fifo get method
# UVM_INFO ../../src/hvlTop/environment/AhbScoreboard.sv(88) @ 110: uvm_test_top.ahbEnvironment.ahbScoreboard [AhbScoreboard] after calling slave's analysis fifo get method
# UVM_INFO ../../src/hvlTop/environment/AhbScoreboard.sv(94) @ 110: uvm_test_top.ahbEnvironment.ahbScoreboard [AhbScoreboard] --
# -----------------------------------------------SCOREBOARD COMPARISIONS--------------------------------------------------
# UVM_INFO ../../src/hvlTop/environment/AhbScoreboard.sv(97) @ 110: uvm_test_top.ahbEnvironment.ahbScoreboard [AhbScoreboard] ahb HWDATA from master and slave is equal
# UVM_INFO ../../src/hvlTop/environment/AhbScoreboard.sv(99) @ 110: uvm_test_top.ahbEnvironment.ahbScoreboard [SB  HWDATA MATCHED] Master HWDATA = 13107372 and Slave HWDATA = 13107372
# UVM_INFO ../../src/hvlTop/environment/AhbScoreboard.sv(112) @ 110: uvm_test_top.ahbEnvironment.ahbScoreboard [AhbScoreboard] ahb HADDR from master and slave is equal
# UVM_INFO ../../src/hvlTop/environment/AhbScoreboard.sv(114) @ 110: uvm_test_top.ahbEnvironment.ahbScoreboard [SB HADDR MATCH] Master HADDR = 'hd5d37a1a and Slave HADDR = 'hd5d37a1a
# UVM_INFO ../../src/hvlTop/environment/AhbScoreboard.sv(126) @ 110: uvm_test_top.ahbEnvironment.ahbScoreboard [AhbScoreboard] ahb HWRITE from master and slave is equal
# UVM_INFO ../../src/hvlTop/environment/AhbScoreboard.sv(128) @ 110: uvm_test_top.ahbEnvironment.ahbScoreboard [SB HWRITE MATCH] Master HWRITE = 'h1 and Slave hwrite = 'h1
# UVM_INFO ../../src/hvlTop/environment/AhbScoreboard.sv(166) @ 110: uvm_test_top.ahbEnvironment.ahbScoreboard [AhbScoreboard] --
# -----------------------------------------------END OF SCOREBOARD COMPARISIONS---------------------------------------
# ** Info: HSIZE matches the data width supported by the slave!
#    Time: 110 ns Started: 110 ns  Scope: HdlTop.ahbMasterAgentBFM.ahbMasterMonitorBFM.ahb_assert File: ../../src/hdlTop/masterAgentBFM/AhbMasterAssertion.sv Line: 180
# ** Info: Valid burst type!
#    Time: 110 ns Started: 110 ns  Scope: HdlTop.ahbMasterAgentBFM.ahbMasterMonitorBFM.ahb_assert File: ../../src/hdlTop/masterAgentBFM/AhbMasterAssertion.sv Line: 189
# ** Info: HRESP is OKAY for valid transactions!
#    Time: 110 ns Started: 90 ns  Scope: HdlTop.ahbSlaveAgentBFM.ahbSlaveMonitorBFM.ahb_assert File: ../../src/hdlTop/slaveAgentBFM/AhbSlaveAssertion.sv Line: 50
# ** Info: Valid Write Transfer
#    Time: 110 ns Started: 90 ns  Scope: HdlTop.ahbMasterAgentBFM.ahbMasterMonitorBFM.ahb_cover File: ../../src/hdlTop/masterAgentBFM/AhbMasterCoverProperty.sv Line: 49
# ** Info: Address Aligned with size
#    Time: 110 ns Started: 110 ns  Scope: HdlTop.ahbMasterAgentBFM.ahbMasterMonitorBFM.ahb_cover File: ../../src/hdlTop/masterAgentBFM/AhbMasterCoverProperty.sv Line: 58
# ** Info: HREADYOUT is high during valid transactions!
#    Time: 110 ns Started: 90 ns  Scope: HdlTop.ahbSlaveAgentBFM.ahbSlaveMonitorBFM.ahb_assert File: ../../src/hdlTop/slaveAgentBFM/AhbSlaveAssertion.sv Line: 31
# ** Info: HWDATA is Valid When HWRITE IS HIGH
#    Time: 110 ns Started: 90 ns  Scope: HdlTop.ahbMasterAgentBFM.ahbMasterMonitorBFM.ahb_assert File: ../../src/hdlTop/masterAgentBFM/AhbMasterAssertion.sv Line: 38
# ** Info: Hurst Occuring properly
#    Time: 110 ns Started: 90 ns  Scope: HdlTop.ahbMasterAgentBFM.ahbMasterMonitorBFM.ahb_cover File: ../../src/hdlTop/masterAgentBFM/AhbMasterCoverProperty.sv Line: 90
# ** Info: HADDR is aligned based on HSIZE
#    Time: 110 ns Started: 110 ns  Scope: HdlTop.ahbMasterAgentBFM.ahbMasterMonitorBFM.ahb_assert File: ../../src/hdlTop/masterAgentBFM/AhbMasterAssertion.sv Line: 57
# ** Info: Hwstrb valid
#    Time: 110 ns Started: 110 ns  Scope: HdlTop.ahbMasterAgentBFM.ahbMasterMonitorBFM.ahb_assert File: ../../src/hdlTop/masterAgentBFM/AhbMasterAssertion.sv Line: 198
# ** Info: HTRANS is Valid
#    Time: 110 ns Started: 90 ns  Scope: HdlTop.ahbMasterAgentBFM.ahbMasterMonitorBFM.ahb_assert File: ../../src/hdlTop/masterAgentBFM/AhbMasterAssertion.sv Line: 47
# ** Info: HMASTLOCK is asserted during a locked transfer
#    Time: 110 ns Started: 110 ns  Scope: HdlTop.ahbMasterAgentBFM.ahbMasterMonitorBFM.ahb_assert File: ../../src/hdlTop/masterAgentBFM/AhbMasterAssertion.sv Line: 104
# ** Info: Hresp is valid
#    Time: 110 ns Started: 90 ns  Scope: HdlTop.ahbSlaveAgentBFM.ahbSlaveMonitorBFM.ahb_cover File: ../../src/hdlTop/slaveAgentBFM/AhbSlaveCoverProperty.sv Line: 57
# ** Info: Hresp is valid
#    Time: 110 ns Started: 70 ns  Scope: HdlTop.ahbSlaveAgentBFM.ahbSlaveMonitorBFM.ahb_cover File: ../../src/hdlTop/slaveAgentBFM/AhbSlaveCoverProperty.sv Line: 57
# &&&&values inside master monitor proxy '{haddr:3587406364, hselx:1, hburst:INCR16, hmastlock:1, hprot:NORMAL_NONSECURE_DATA, hsize:HALFWORD, hnonsec:x, hexcl:x, hmaster:x, htrans:SEQ, hwdata:'{0, 0, 0, 0, 0, 0, 0, 0, 0, 0, 0, 0, 0, 0, 0, 0, 385875970}, hwstrb:'{0, 0, 0, 0, 0, 0, 0, 0, 0, 0, 0, 0, 0, 0, 0, 0, 10}, hwrite:WRITE, hrdata:'{0, 0, 0, 0, 0, 0, 0, 0, 0, 0, 0, 0, 0, 0, 0, 0, x}, hreadyout:x, hresp:OKAY, hexokay:x, hready:1, noOfWaitStates:0, busyControl:0}&&&
# UVM_INFO ../../src/hvlTop/masterAgent/AhbMasterMonitorProxy.sv(58) @ 130: uvm_test_top.ahbEnvironment.ahbMasterAgent[0].ahbMasterMonitorProxy [AhbMasterMonitorProxy] Sending packet via analysis_port: , 
#  ---------------------------------------------------------------------------
# Name                      Type                  Size  Value                
# ---------------------------------------------------------------------------
# ahbMasterPacket           AhbMasterTransaction  -     @1232                
#   haddr                   integral              32    'hd5d37a1c           
#   hselx                   integral              1     'b1                  
#   hburst                  string                6     INCR16               
#   hmastlock               integral              1     'h1                  
#   hprot                   string                21    NORMAL_NONSECURE_DATA
#   hsize                   string                8     HALFWORD             
#   hnonsec                 integral              1     'h0                  
#   hexcl                   integral              1     'h0                  
#   hmaster                 integral              1     'd0                  
#   htrans                  string                3     SEQ                  
#   hwrite                  string                5     WRITE                
#   hreadyout               integral              1     'h0                  
#   hresp                   string                4     OKAY                 
#   hexokay                 integral              1     'h0                  
#   hready                  integral              1     'h1                  
#   noOfwaitStatesDetected  integral              32    'h0                  
#   hwdata[0]               integral              32    'h17000002           
#   hwstrb[0]               integral              4     'b1010               
# ---------------------------------------------------------------------------
# 
# UVM_INFO ../../src/hvlTop/masterAgent/AhbMasterCoverage.sv(180) @ 130: uvm_test_top.ahbEnvironment.ahbMasterAgent[0].ahbMasterCoverage [AhbMasterCoverage] Before calling SAMPLE METHOD
# UVM_INFO ../../src/hvlTop/masterAgent/AhbMasterCoverage.sv(182) @ 130: uvm_test_top.ahbEnvironment.ahbMasterAgent[0].ahbMasterCoverage [AhbMasterCoverage] After calling SAMPLE METHOD
# UVM_INFO ../../src/hdlTop/slaveAgentBFM/AhbSlaveDriverBFM.sv(121) @ 130: reporter [AHB_SLAVE_DRIVER_BFM] Busy = 0
# &&&&values inside monitor proxy '{haddr:3587406364, hselx:1, hburst:INCR16, hmastlock:x, hprot:NORMAL_NONSECURE_DATA, hsize:HALFWORD, hnonsec:0, hexcl:x, hmaster:x, htrans:SEQ, hwdata:'{0, 0, 0, 0, 0, 0, 0, 0, 0, 0, 0, 0, 0, 0, 0, 0, 385875970}, hwstrb:'{0, 0, 0, 0, 0, 0, 0, 0, 0, 0, 0, 0, 0, 0, 0, 0, 10}, hwrite:WRITE, hrdata:'{0, 0, 0, 0, 0, 0, 0, 0, 0, 0, 0, 0, 0, 0, 0, 0, x}, hreadyout:1, hresp:OKAY, hexokay:x, hready:x, noOfWaitStates:0, busyControl:0}&&&
# UVM_INFO ../../src/hvlTop/slaveAgent/AhbSlaveSequenceItemConverter.sv(149) @ 130: reporter [ahbSlaveSequeceItemconverterClass] After randomizing noofwaitstate = 00000000000000000000000000000000
# UVM_INFO ../../src/hvlTop/slaveAgent/AhbSlaveSequenceItemConverter.sv(177) @ 130: reporter [ahbSlaveSequeceItemconverterClass] -------------------------------------------------------------
# UVM_INFO ../../src/hvlTop/slaveAgent/AhbSlaveMonitorProxy.sv(57) @ 130: uvm_test_top.ahbEnvironment.ahbSlaveAgent[0].ahbSlaveMonitorProxy [AhbSlaveMonitorProxy] Sending packet via analysis_port: , 
#  --------------------------------------------------------------------
# Name                Type                 Size  Value                
# --------------------------------------------------------------------
# slave Packet        AhbSlaveTransaction  -     @1236                
#   haddr             integral             32    'hd5d37a1c           
#   hselx             integral             1     'b1                  
#   hburst            string               6     INCR16               
#   hmastlock         integral             1     'h0                  
#   hprot             string               21    NORMAL_NONSECURE_DATA
#   hsize             string               8     HALFWORD             
#   hnonsec           integral             1     'h0                  
#   hexcl             integral             1     'h0                  
#   hmaster           integral             1     'd0                  
#   htrans            string               3     SEQ                  
#   hwrite            string               5     WRITE                
#   hreadyout         integral             1     'h1                  
#   hresp             string               4     OKAY                 
#   hexokay           integral             1     'h0                  
#   hready            integral             1     'h0                  
#   choosePacketData  integral             1     'd0                  
#   hwdata[0]         integral             32    'h17000002           
#   hwstrb[0]         integral             4     'b1010               
# --------------------------------------------------------------------
# 
# UVM_INFO ../../src/hvlTop/slaveAgent/AhbSlaveCoverage.sv(61) @ 130: uvm_test_top.ahbEnvironment.ahbSlaveAgent[0].ahbSlaveCoverage [AhbSlaveCoverage] AHB SLAVE COVERAGE
# UVM_INFO ../../src/hvlTop/environment/AhbScoreboard.sv(78) @ 130: uvm_test_top.ahbEnvironment.ahbScoreboard [AhbScoreboard] after calling master's analysis fifo get method
# UVM_INFO ../../src/hvlTop/environment/AhbScoreboard.sv(88) @ 130: uvm_test_top.ahbEnvironment.ahbScoreboard [AhbScoreboard] after calling slave's analysis fifo get method
# UVM_INFO ../../src/hvlTop/environment/AhbScoreboard.sv(94) @ 130: uvm_test_top.ahbEnvironment.ahbScoreboard [AhbScoreboard] --
# -----------------------------------------------SCOREBOARD COMPARISIONS--------------------------------------------------
# UVM_INFO ../../src/hvlTop/environment/AhbScoreboard.sv(97) @ 130: uvm_test_top.ahbEnvironment.ahbScoreboard [AhbScoreboard] ahb HWDATA from master and slave is equal
# UVM_INFO ../../src/hvlTop/environment/AhbScoreboard.sv(99) @ 130: uvm_test_top.ahbEnvironment.ahbScoreboard [SB  HWDATA MATCHED] Master HWDATA = 385875970 and Slave HWDATA = 385875970
# UVM_INFO ../../src/hvlTop/environment/AhbScoreboard.sv(112) @ 130: uvm_test_top.ahbEnvironment.ahbScoreboard [AhbScoreboard] ahb HADDR from master and slave is equal
# UVM_INFO ../../src/hvlTop/environment/AhbScoreboard.sv(114) @ 130: uvm_test_top.ahbEnvironment.ahbScoreboard [SB HADDR MATCH] Master HADDR = 'hd5d37a1c and Slave HADDR = 'hd5d37a1c
# UVM_INFO ../../src/hvlTop/environment/AhbScoreboard.sv(126) @ 130: uvm_test_top.ahbEnvironment.ahbScoreboard [AhbScoreboard] ahb HWRITE from master and slave is equal
# UVM_INFO ../../src/hvlTop/environment/AhbScoreboard.sv(128) @ 130: uvm_test_top.ahbEnvironment.ahbScoreboard [SB HWRITE MATCH] Master HWRITE = 'h1 and Slave hwrite = 'h1
# UVM_INFO ../../src/hvlTop/environment/AhbScoreboard.sv(166) @ 130: uvm_test_top.ahbEnvironment.ahbScoreboard [AhbScoreboard] --
# -----------------------------------------------END OF SCOREBOARD COMPARISIONS---------------------------------------
# ** Info: HSIZE matches the data width supported by the slave!
#    Time: 130 ns Started: 130 ns  Scope: HdlTop.ahbMasterAgentBFM.ahbMasterMonitorBFM.ahb_assert File: ../../src/hdlTop/masterAgentBFM/AhbMasterAssertion.sv Line: 180
# ** Info: Valid burst type!
#    Time: 130 ns Started: 130 ns  Scope: HdlTop.ahbMasterAgentBFM.ahbMasterMonitorBFM.ahb_assert File: ../../src/hdlTop/masterAgentBFM/AhbMasterAssertion.sv Line: 189
# ** Info: HRESP is OKAY for valid transactions!
#    Time: 130 ns Started: 110 ns  Scope: HdlTop.ahbSlaveAgentBFM.ahbSlaveMonitorBFM.ahb_assert File: ../../src/hdlTop/slaveAgentBFM/AhbSlaveAssertion.sv Line: 50
# ** Info: Valid Write Transfer
#    Time: 130 ns Started: 110 ns  Scope: HdlTop.ahbMasterAgentBFM.ahbMasterMonitorBFM.ahb_cover File: ../../src/hdlTop/masterAgentBFM/AhbMasterCoverProperty.sv Line: 49
# ** Info: Address Aligned with size
#    Time: 130 ns Started: 130 ns  Scope: HdlTop.ahbMasterAgentBFM.ahbMasterMonitorBFM.ahb_cover File: ../../src/hdlTop/masterAgentBFM/AhbMasterCoverProperty.sv Line: 58
# ** Info: HREADYOUT is high during valid transactions!
#    Time: 130 ns Started: 110 ns  Scope: HdlTop.ahbSlaveAgentBFM.ahbSlaveMonitorBFM.ahb_assert File: ../../src/hdlTop/slaveAgentBFM/AhbSlaveAssertion.sv Line: 31
# ** Info: HWDATA is Valid When HWRITE IS HIGH
#    Time: 130 ns Started: 110 ns  Scope: HdlTop.ahbMasterAgentBFM.ahbMasterMonitorBFM.ahb_assert File: ../../src/hdlTop/masterAgentBFM/AhbMasterAssertion.sv Line: 38
# ** Info: HADDR is aligned based on HSIZE
#    Time: 130 ns Started: 130 ns  Scope: HdlTop.ahbMasterAgentBFM.ahbMasterMonitorBFM.ahb_assert File: ../../src/hdlTop/masterAgentBFM/AhbMasterAssertion.sv Line: 57
# ** Info: Hwstrb valid
#    Time: 130 ns Started: 130 ns  Scope: HdlTop.ahbMasterAgentBFM.ahbMasterMonitorBFM.ahb_assert File: ../../src/hdlTop/masterAgentBFM/AhbMasterAssertion.sv Line: 198
# ** Info: HTRANS is Valid
#    Time: 130 ns Started: 110 ns  Scope: HdlTop.ahbMasterAgentBFM.ahbMasterMonitorBFM.ahb_assert File: ../../src/hdlTop/masterAgentBFM/AhbMasterAssertion.sv Line: 47
# ** Info: HMASTLOCK is asserted during a locked transfer
#    Time: 130 ns Started: 130 ns  Scope: HdlTop.ahbMasterAgentBFM.ahbMasterMonitorBFM.ahb_assert File: ../../src/hdlTop/masterAgentBFM/AhbMasterAssertion.sv Line: 104
# ** Info: Hresp is valid
#    Time: 130 ns Started: 110 ns  Scope: HdlTop.ahbSlaveAgentBFM.ahbSlaveMonitorBFM.ahb_cover File: ../../src/hdlTop/slaveAgentBFM/AhbSlaveCoverProperty.sv Line: 57
# &&&&values inside master monitor proxy '{haddr:3587406366, hselx:1, hburst:INCR16, hmastlock:1, hprot:NORMAL_NONSECURE_DATA, hsize:HALFWORD, hnonsec:x, hexcl:x, hmaster:x, htrans:SEQ, hwdata:'{0, 0, 0, 0, 0, 0, 0, 0, 0, 0, 0, 0, 0, 0, 0, 0, 3204456960}, hwstrb:'{0, 0, 0, 0, 0, 0, 0, 0, 0, 0, 0, 0, 0, 0, 0, 0, 3}, hwrite:WRITE, hrdata:'{0, 0, 0, 0, 0, 0, 0, 0, 0, 0, 0, 0, 0, 0, 0, 0, x}, hreadyout:x, hresp:OKAY, hexokay:x, hready:1, noOfWaitStates:0, busyControl:0}&&&
# UVM_INFO ../../src/hvlTop/masterAgent/AhbMasterMonitorProxy.sv(58) @ 150: uvm_test_top.ahbEnvironment.ahbMasterAgent[0].ahbMasterMonitorProxy [AhbMasterMonitorProxy] Sending packet via analysis_port: , 
#  ---------------------------------------------------------------------------
# Name                      Type                  Size  Value                
# ---------------------------------------------------------------------------
# ahbMasterPacket           AhbMasterTransaction  -     @1240                
#   haddr                   integral              32    'hd5d37a1e           
#   hselx                   integral              1     'b1                  
#   hburst                  string                6     INCR16               
#   hmastlock               integral              1     'h1                  
#   hprot                   string                21    NORMAL_NONSECURE_DATA
#   hsize                   string                8     HALFWORD             
#   hnonsec                 integral              1     'h0                  
#   hexcl                   integral              1     'h0                  
#   hmaster                 integral              1     'd0                  
#   htrans                  string                3     SEQ                  
#   hwrite                  string                5     WRITE                
#   hreadyout               integral              1     'h0                  
#   hresp                   string                4     OKAY                 
#   hexokay                 integral              1     'h0                  
#   hready                  integral              1     'h1                  
#   noOfwaitStatesDetected  integral              32    'h0                  
#   hwdata[0]               integral              32    'hbf002200           
#   hwstrb[0]               integral              4     'b11                 
# ---------------------------------------------------------------------------
# 
# UVM_INFO ../../src/hvlTop/masterAgent/AhbMasterCoverage.sv(180) @ 150: uvm_test_top.ahbEnvironment.ahbMasterAgent[0].ahbMasterCoverage [AhbMasterCoverage] Before calling SAMPLE METHOD
# UVM_INFO ../../src/hvlTop/masterAgent/AhbMasterCoverage.sv(182) @ 150: uvm_test_top.ahbEnvironment.ahbMasterAgent[0].ahbMasterCoverage [AhbMasterCoverage] After calling SAMPLE METHOD
# UVM_INFO ../../src/hdlTop/slaveAgentBFM/AhbSlaveDriverBFM.sv(121) @ 150: reporter [AHB_SLAVE_DRIVER_BFM] Busy = 0
# &&&&values inside monitor proxy '{haddr:3587406366, hselx:1, hburst:INCR16, hmastlock:x, hprot:NORMAL_NONSECURE_DATA, hsize:HALFWORD, hnonsec:0, hexcl:x, hmaster:x, htrans:SEQ, hwdata:'{0, 0, 0, 0, 0, 0, 0, 0, 0, 0, 0, 0, 0, 0, 0, 0, 3204456960}, hwstrb:'{0, 0, 0, 0, 0, 0, 0, 0, 0, 0, 0, 0, 0, 0, 0, 0, 3}, hwrite:WRITE, hrdata:'{0, 0, 0, 0, 0, 0, 0, 0, 0, 0, 0, 0, 0, 0, 0, 0, x}, hreadyout:1, hresp:OKAY, hexokay:x, hready:x, noOfWaitStates:0, busyControl:0}&&&
# UVM_INFO ../../src/hvlTop/slaveAgent/AhbSlaveSequenceItemConverter.sv(149) @ 150: reporter [ahbSlaveSequeceItemconverterClass] After randomizing noofwaitstate = 00000000000000000000000000000000
# UVM_INFO ../../src/hvlTop/slaveAgent/AhbSlaveSequenceItemConverter.sv(177) @ 150: reporter [ahbSlaveSequeceItemconverterClass] -------------------------------------------------------------
# UVM_INFO ../../src/hvlTop/slaveAgent/AhbSlaveMonitorProxy.sv(57) @ 150: uvm_test_top.ahbEnvironment.ahbSlaveAgent[0].ahbSlaveMonitorProxy [AhbSlaveMonitorProxy] Sending packet via analysis_port: , 
#  --------------------------------------------------------------------
# Name                Type                 Size  Value                
# --------------------------------------------------------------------
# slave Packet        AhbSlaveTransaction  -     @1244                
#   haddr             integral             32    'hd5d37a1e           
#   hselx             integral             1     'b1                  
#   hburst            string               6     INCR16               
#   hmastlock         integral             1     'h0                  
#   hprot             string               21    NORMAL_NONSECURE_DATA
#   hsize             string               8     HALFWORD             
#   hnonsec           integral             1     'h0                  
#   hexcl             integral             1     'h0                  
#   hmaster           integral             1     'd0                  
#   htrans            string               3     SEQ                  
#   hwrite            string               5     WRITE                
#   hreadyout         integral             1     'h1                  
#   hresp             string               4     OKAY                 
#   hexokay           integral             1     'h0                  
#   hready            integral             1     'h0                  
#   choosePacketData  integral             1     'd0                  
#   hwdata[0]         integral             32    'hbf002200           
#   hwstrb[0]         integral             4     'b11                 
# --------------------------------------------------------------------
# 
# UVM_INFO ../../src/hvlTop/slaveAgent/AhbSlaveCoverage.sv(61) @ 150: uvm_test_top.ahbEnvironment.ahbSlaveAgent[0].ahbSlaveCoverage [AhbSlaveCoverage] AHB SLAVE COVERAGE
# UVM_INFO ../../src/hvlTop/environment/AhbScoreboard.sv(78) @ 150: uvm_test_top.ahbEnvironment.ahbScoreboard [AhbScoreboard] after calling master's analysis fifo get method
# UVM_INFO ../../src/hvlTop/environment/AhbScoreboard.sv(88) @ 150: uvm_test_top.ahbEnvironment.ahbScoreboard [AhbScoreboard] after calling slave's analysis fifo get method
# UVM_INFO ../../src/hvlTop/environment/AhbScoreboard.sv(94) @ 150: uvm_test_top.ahbEnvironment.ahbScoreboard [AhbScoreboard] --
# -----------------------------------------------SCOREBOARD COMPARISIONS--------------------------------------------------
# UVM_INFO ../../src/hvlTop/environment/AhbScoreboard.sv(97) @ 150: uvm_test_top.ahbEnvironment.ahbScoreboard [AhbScoreboard] ahb HWDATA from master and slave is equal
# UVM_INFO ../../src/hvlTop/environment/AhbScoreboard.sv(99) @ 150: uvm_test_top.ahbEnvironment.ahbScoreboard [SB  HWDATA MATCHED] Master HWDATA = 3204456960 and Slave HWDATA = 3204456960
# UVM_INFO ../../src/hvlTop/environment/AhbScoreboard.sv(112) @ 150: uvm_test_top.ahbEnvironment.ahbScoreboard [AhbScoreboard] ahb HADDR from master and slave is equal
# UVM_INFO ../../src/hvlTop/environment/AhbScoreboard.sv(114) @ 150: uvm_test_top.ahbEnvironment.ahbScoreboard [SB HADDR MATCH] Master HADDR = 'hd5d37a1e and Slave HADDR = 'hd5d37a1e
# UVM_INFO ../../src/hvlTop/environment/AhbScoreboard.sv(126) @ 150: uvm_test_top.ahbEnvironment.ahbScoreboard [AhbScoreboard] ahb HWRITE from master and slave is equal
# UVM_INFO ../../src/hvlTop/environment/AhbScoreboard.sv(128) @ 150: uvm_test_top.ahbEnvironment.ahbScoreboard [SB HWRITE MATCH] Master HWRITE = 'h1 and Slave hwrite = 'h1
# UVM_INFO ../../src/hvlTop/environment/AhbScoreboard.sv(166) @ 150: uvm_test_top.ahbEnvironment.ahbScoreboard [AhbScoreboard] --
# -----------------------------------------------END OF SCOREBOARD COMPARISIONS---------------------------------------
# ** Info: HSIZE matches the data width supported by the slave!
#    Time: 150 ns Started: 150 ns  Scope: HdlTop.ahbMasterAgentBFM.ahbMasterMonitorBFM.ahb_assert File: ../../src/hdlTop/masterAgentBFM/AhbMasterAssertion.sv Line: 180
# ** Info: Valid burst type!
#    Time: 150 ns Started: 150 ns  Scope: HdlTop.ahbMasterAgentBFM.ahbMasterMonitorBFM.ahb_assert File: ../../src/hdlTop/masterAgentBFM/AhbMasterAssertion.sv Line: 189
# ** Info: HRESP is OKAY for valid transactions!
#    Time: 150 ns Started: 130 ns  Scope: HdlTop.ahbSlaveAgentBFM.ahbSlaveMonitorBFM.ahb_assert File: ../../src/hdlTop/slaveAgentBFM/AhbSlaveAssertion.sv Line: 50
# ** Info: Valid Write Transfer
#    Time: 150 ns Started: 130 ns  Scope: HdlTop.ahbMasterAgentBFM.ahbMasterMonitorBFM.ahb_cover File: ../../src/hdlTop/masterAgentBFM/AhbMasterCoverProperty.sv Line: 49
# ** Info: Address Aligned with size
#    Time: 150 ns Started: 150 ns  Scope: HdlTop.ahbMasterAgentBFM.ahbMasterMonitorBFM.ahb_cover File: ../../src/hdlTop/masterAgentBFM/AhbMasterCoverProperty.sv Line: 58
# ** Info: HREADYOUT is high during valid transactions!
#    Time: 150 ns Started: 130 ns  Scope: HdlTop.ahbSlaveAgentBFM.ahbSlaveMonitorBFM.ahb_assert File: ../../src/hdlTop/slaveAgentBFM/AhbSlaveAssertion.sv Line: 31
# ** Info: HWDATA is Valid When HWRITE IS HIGH
#    Time: 150 ns Started: 130 ns  Scope: HdlTop.ahbMasterAgentBFM.ahbMasterMonitorBFM.ahb_assert File: ../../src/hdlTop/masterAgentBFM/AhbMasterAssertion.sv Line: 38
# ** Info: HADDR is aligned based on HSIZE
#    Time: 150 ns Started: 150 ns  Scope: HdlTop.ahbMasterAgentBFM.ahbMasterMonitorBFM.ahb_assert File: ../../src/hdlTop/masterAgentBFM/AhbMasterAssertion.sv Line: 57
# ** Info: Hwstrb valid
#    Time: 150 ns Started: 150 ns  Scope: HdlTop.ahbMasterAgentBFM.ahbMasterMonitorBFM.ahb_assert File: ../../src/hdlTop/masterAgentBFM/AhbMasterAssertion.sv Line: 198
# ** Info: HTRANS is Valid
#    Time: 150 ns Started: 130 ns  Scope: HdlTop.ahbMasterAgentBFM.ahbMasterMonitorBFM.ahb_assert File: ../../src/hdlTop/masterAgentBFM/AhbMasterAssertion.sv Line: 47
# ** Info: HMASTLOCK is asserted during a locked transfer
#    Time: 150 ns Started: 150 ns  Scope: HdlTop.ahbMasterAgentBFM.ahbMasterMonitorBFM.ahb_assert File: ../../src/hdlTop/masterAgentBFM/AhbMasterAssertion.sv Line: 104
# ** Info: Hresp is valid
#    Time: 150 ns Started: 130 ns  Scope: HdlTop.ahbSlaveAgentBFM.ahbSlaveMonitorBFM.ahb_cover File: ../../src/hdlTop/slaveAgentBFM/AhbSlaveCoverProperty.sv Line: 57
# &&&&values inside master monitor proxy '{haddr:3587406368, hselx:1, hburst:INCR16, hmastlock:1, hprot:NORMAL_NONSECURE_DATA, hsize:HALFWORD, hnonsec:x, hexcl:x, hmaster:x, htrans:SEQ, hwdata:'{0, 0, 0, 0, 0, 0, 0, 0, 0, 0, 0, 0, 0, 0, 0, 0, 38924}, hwstrb:'{0, 0, 0, 0, 0, 0, 0, 0, 0, 0, 0, 0, 0, 0, 0, 0, 5}, hwrite:WRITE, hrdata:'{0, 0, 0, 0, 0, 0, 0, 0, 0, 0, 0, 0, 0, 0, 0, 0, x}, hreadyout:x, hresp:OKAY, hexokay:x, hready:1, noOfWaitStates:0, busyControl:0}&&&
# UVM_INFO ../../src/hvlTop/masterAgent/AhbMasterMonitorProxy.sv(58) @ 170: uvm_test_top.ahbEnvironment.ahbMasterAgent[0].ahbMasterMonitorProxy [AhbMasterMonitorProxy] Sending packet via analysis_port: , 
#  ---------------------------------------------------------------------------
# Name                      Type                  Size  Value                
# ---------------------------------------------------------------------------
# ahbMasterPacket           AhbMasterTransaction  -     @1248                
#   haddr                   integral              32    'hd5d37a20           
#   hselx                   integral              1     'b1                  
#   hburst                  string                6     INCR16               
#   hmastlock               integral              1     'h1                  
#   hprot                   string                21    NORMAL_NONSECURE_DATA
#   hsize                   string                8     HALFWORD             
#   hnonsec                 integral              1     'h0                  
#   hexcl                   integral              1     'h0                  
#   hmaster                 integral              1     'd0                  
#   htrans                  string                3     SEQ                  
#   hwrite                  string                5     WRITE                
#   hreadyout               integral              1     'h0                  
#   hresp                   string                4     OKAY                 
#   hexokay                 integral              1     'h0                  
#   hready                  integral              1     'h1                  
#   noOfwaitStatesDetected  integral              32    'h0                  
#   hwdata[0]               integral              32    'h980c               
#   hwstrb[0]               integral              4     'b101                
# ---------------------------------------------------------------------------
# 
# UVM_INFO ../../src/hvlTop/masterAgent/AhbMasterCoverage.sv(180) @ 170: uvm_test_top.ahbEnvironment.ahbMasterAgent[0].ahbMasterCoverage [AhbMasterCoverage] Before calling SAMPLE METHOD
# UVM_INFO ../../src/hvlTop/masterAgent/AhbMasterCoverage.sv(182) @ 170: uvm_test_top.ahbEnvironment.ahbMasterAgent[0].ahbMasterCoverage [AhbMasterCoverage] After calling SAMPLE METHOD
# UVM_INFO ../../src/hdlTop/slaveAgentBFM/AhbSlaveDriverBFM.sv(121) @ 170: reporter [AHB_SLAVE_DRIVER_BFM] Busy = 0
# &&&&values inside monitor proxy '{haddr:3587406368, hselx:1, hburst:INCR16, hmastlock:x, hprot:NORMAL_NONSECURE_DATA, hsize:HALFWORD, hnonsec:0, hexcl:x, hmaster:x, htrans:SEQ, hwdata:'{0, 0, 0, 0, 0, 0, 0, 0, 0, 0, 0, 0, 0, 0, 0, 0, 38924}, hwstrb:'{0, 0, 0, 0, 0, 0, 0, 0, 0, 0, 0, 0, 0, 0, 0, 0, 5}, hwrite:WRITE, hrdata:'{0, 0, 0, 0, 0, 0, 0, 0, 0, 0, 0, 0, 0, 0, 0, 0, x}, hreadyout:1, hresp:OKAY, hexokay:x, hready:x, noOfWaitStates:0, busyControl:0}&&&
# UVM_INFO ../../src/hvlTop/slaveAgent/AhbSlaveSequenceItemConverter.sv(149) @ 170: reporter [ahbSlaveSequeceItemconverterClass] After randomizing noofwaitstate = 00000000000000000000000000000000
# UVM_INFO ../../src/hvlTop/slaveAgent/AhbSlaveSequenceItemConverter.sv(177) @ 170: reporter [ahbSlaveSequeceItemconverterClass] -------------------------------------------------------------
# UVM_INFO ../../src/hvlTop/slaveAgent/AhbSlaveMonitorProxy.sv(57) @ 170: uvm_test_top.ahbEnvironment.ahbSlaveAgent[0].ahbSlaveMonitorProxy [AhbSlaveMonitorProxy] Sending packet via analysis_port: , 
#  --------------------------------------------------------------------
# Name                Type                 Size  Value                
# --------------------------------------------------------------------
# slave Packet        AhbSlaveTransaction  -     @1252                
#   haddr             integral             32    'hd5d37a20           
#   hselx             integral             1     'b1                  
#   hburst            string               6     INCR16               
#   hmastlock         integral             1     'h0                  
#   hprot             string               21    NORMAL_NONSECURE_DATA
#   hsize             string               8     HALFWORD             
#   hnonsec           integral             1     'h0                  
#   hexcl             integral             1     'h0                  
#   hmaster           integral             1     'd0                  
#   htrans            string               3     SEQ                  
#   hwrite            string               5     WRITE                
#   hreadyout         integral             1     'h1                  
#   hresp             string               4     OKAY                 
#   hexokay           integral             1     'h0                  
#   hready            integral             1     'h0                  
#   choosePacketData  integral             1     'd0                  
#   hwdata[0]         integral             32    'h980c               
#   hwstrb[0]         integral             4     'b101                
# --------------------------------------------------------------------
# 
# UVM_INFO ../../src/hvlTop/slaveAgent/AhbSlaveCoverage.sv(61) @ 170: uvm_test_top.ahbEnvironment.ahbSlaveAgent[0].ahbSlaveCoverage [AhbSlaveCoverage] AHB SLAVE COVERAGE
# UVM_INFO ../../src/hvlTop/environment/AhbScoreboard.sv(78) @ 170: uvm_test_top.ahbEnvironment.ahbScoreboard [AhbScoreboard] after calling master's analysis fifo get method
# UVM_INFO ../../src/hvlTop/environment/AhbScoreboard.sv(88) @ 170: uvm_test_top.ahbEnvironment.ahbScoreboard [AhbScoreboard] after calling slave's analysis fifo get method
# UVM_INFO ../../src/hvlTop/environment/AhbScoreboard.sv(94) @ 170: uvm_test_top.ahbEnvironment.ahbScoreboard [AhbScoreboard] --
# -----------------------------------------------SCOREBOARD COMPARISIONS--------------------------------------------------
# UVM_INFO ../../src/hvlTop/environment/AhbScoreboard.sv(97) @ 170: uvm_test_top.ahbEnvironment.ahbScoreboard [AhbScoreboard] ahb HWDATA from master and slave is equal
# UVM_INFO ../../src/hvlTop/environment/AhbScoreboard.sv(99) @ 170: uvm_test_top.ahbEnvironment.ahbScoreboard [SB  HWDATA MATCHED] Master HWDATA = 38924 and Slave HWDATA = 38924
# UVM_INFO ../../src/hvlTop/environment/AhbScoreboard.sv(112) @ 170: uvm_test_top.ahbEnvironment.ahbScoreboard [AhbScoreboard] ahb HADDR from master and slave is equal
# UVM_INFO ../../src/hvlTop/environment/AhbScoreboard.sv(114) @ 170: uvm_test_top.ahbEnvironment.ahbScoreboard [SB HADDR MATCH] Master HADDR = 'hd5d37a20 and Slave HADDR = 'hd5d37a20
# UVM_INFO ../../src/hvlTop/environment/AhbScoreboard.sv(126) @ 170: uvm_test_top.ahbEnvironment.ahbScoreboard [AhbScoreboard] ahb HWRITE from master and slave is equal
# UVM_INFO ../../src/hvlTop/environment/AhbScoreboard.sv(128) @ 170: uvm_test_top.ahbEnvironment.ahbScoreboard [SB HWRITE MATCH] Master HWRITE = 'h1 and Slave hwrite = 'h1
# UVM_INFO ../../src/hvlTop/environment/AhbScoreboard.sv(166) @ 170: uvm_test_top.ahbEnvironment.ahbScoreboard [AhbScoreboard] --
# -----------------------------------------------END OF SCOREBOARD COMPARISIONS---------------------------------------
# ** Info: HSIZE matches the data width supported by the slave!
#    Time: 170 ns Started: 170 ns  Scope: HdlTop.ahbMasterAgentBFM.ahbMasterMonitorBFM.ahb_assert File: ../../src/hdlTop/masterAgentBFM/AhbMasterAssertion.sv Line: 180
# ** Info: Valid burst type!
#    Time: 170 ns Started: 170 ns  Scope: HdlTop.ahbMasterAgentBFM.ahbMasterMonitorBFM.ahb_assert File: ../../src/hdlTop/masterAgentBFM/AhbMasterAssertion.sv Line: 189
# ** Info: HRESP is OKAY for valid transactions!
#    Time: 170 ns Started: 150 ns  Scope: HdlTop.ahbSlaveAgentBFM.ahbSlaveMonitorBFM.ahb_assert File: ../../src/hdlTop/slaveAgentBFM/AhbSlaveAssertion.sv Line: 50
# ** Info: Valid Write Transfer
#    Time: 170 ns Started: 150 ns  Scope: HdlTop.ahbMasterAgentBFM.ahbMasterMonitorBFM.ahb_cover File: ../../src/hdlTop/masterAgentBFM/AhbMasterCoverProperty.sv Line: 49
# ** Info: Address Aligned with size
#    Time: 170 ns Started: 170 ns  Scope: HdlTop.ahbMasterAgentBFM.ahbMasterMonitorBFM.ahb_cover File: ../../src/hdlTop/masterAgentBFM/AhbMasterCoverProperty.sv Line: 58
# ** Info: HREADYOUT is high during valid transactions!
#    Time: 170 ns Started: 150 ns  Scope: HdlTop.ahbSlaveAgentBFM.ahbSlaveMonitorBFM.ahb_assert File: ../../src/hdlTop/slaveAgentBFM/AhbSlaveAssertion.sv Line: 31
# ** Info: HWDATA is Valid When HWRITE IS HIGH
#    Time: 170 ns Started: 150 ns  Scope: HdlTop.ahbMasterAgentBFM.ahbMasterMonitorBFM.ahb_assert File: ../../src/hdlTop/masterAgentBFM/AhbMasterAssertion.sv Line: 38
# ** Info: HADDR is aligned based on HSIZE
#    Time: 170 ns Started: 170 ns  Scope: HdlTop.ahbMasterAgentBFM.ahbMasterMonitorBFM.ahb_assert File: ../../src/hdlTop/masterAgentBFM/AhbMasterAssertion.sv Line: 57
# ** Info: Hwstrb valid
#    Time: 170 ns Started: 170 ns  Scope: HdlTop.ahbMasterAgentBFM.ahbMasterMonitorBFM.ahb_assert File: ../../src/hdlTop/masterAgentBFM/AhbMasterAssertion.sv Line: 198
# ** Info: HTRANS is Valid
#    Time: 170 ns Started: 150 ns  Scope: HdlTop.ahbMasterAgentBFM.ahbMasterMonitorBFM.ahb_assert File: ../../src/hdlTop/masterAgentBFM/AhbMasterAssertion.sv Line: 47
# ** Info: HMASTLOCK is asserted during a locked transfer
#    Time: 170 ns Started: 170 ns  Scope: HdlTop.ahbMasterAgentBFM.ahbMasterMonitorBFM.ahb_assert File: ../../src/hdlTop/masterAgentBFM/AhbMasterAssertion.sv Line: 104
# ** Info: Hresp is valid
#    Time: 170 ns Started: 150 ns  Scope: HdlTop.ahbSlaveAgentBFM.ahbSlaveMonitorBFM.ahb_cover File: ../../src/hdlTop/slaveAgentBFM/AhbSlaveCoverProperty.sv Line: 57
# &&&&values inside master monitor proxy '{haddr:3587406370, hselx:1, hburst:INCR16, hmastlock:1, hprot:NORMAL_NONSECURE_DATA, hsize:HALFWORD, hnonsec:x, hexcl:x, hmaster:x, htrans:SEQ, hwdata:'{0, 0, 0, 0, 0, 0, 0, 0, 0, 0, 0, 0, 0, 0, 0, 0, 7929972}, hwstrb:'{0, 0, 0, 0, 0, 0, 0, 0, 0, 0, 0, 0, 0, 0, 0, 0, 10}, hwrite:WRITE, hrdata:'{0, 0, 0, 0, 0, 0, 0, 0, 0, 0, 0, 0, 0, 0, 0, 0, x}, hreadyout:x, hresp:OKAY, hexokay:x, hready:1, noOfWaitStates:0, busyControl:0}&&&
# UVM_INFO ../../src/hvlTop/masterAgent/AhbMasterMonitorProxy.sv(58) @ 190: uvm_test_top.ahbEnvironment.ahbMasterAgent[0].ahbMasterMonitorProxy [AhbMasterMonitorProxy] Sending packet via analysis_port: , 
#  ---------------------------------------------------------------------------
# Name                      Type                  Size  Value                
# ---------------------------------------------------------------------------
# ahbMasterPacket           AhbMasterTransaction  -     @1256                
#   haddr                   integral              32    'hd5d37a22           
#   hselx                   integral              1     'b1                  
#   hburst                  string                6     INCR16               
#   hmastlock               integral              1     'h1                  
#   hprot                   string                21    NORMAL_NONSECURE_DATA
#   hsize                   string                8     HALFWORD             
#   hnonsec                 integral              1     'h0                  
#   hexcl                   integral              1     'h0                  
#   hmaster                 integral              1     'd0                  
#   htrans                  string                3     SEQ                  
#   hwrite                  string                5     WRITE                
#   hreadyout               integral              1     'h0                  
#   hresp                   string                4     OKAY                 
#   hexokay                 integral              1     'h0                  
#   hready                  integral              1     'h1                  
#   noOfwaitStatesDetected  integral              32    'h0                  
#   hwdata[0]               integral              32    'h790074             
#   hwstrb[0]               integral              4     'b1010               
# ---------------------------------------------------------------------------
# 
# UVM_INFO ../../src/hvlTop/masterAgent/AhbMasterCoverage.sv(180) @ 190: uvm_test_top.ahbEnvironment.ahbMasterAgent[0].ahbMasterCoverage [AhbMasterCoverage] Before calling SAMPLE METHOD
# UVM_INFO ../../src/hvlTop/masterAgent/AhbMasterCoverage.sv(182) @ 190: uvm_test_top.ahbEnvironment.ahbMasterAgent[0].ahbMasterCoverage [AhbMasterCoverage] After calling SAMPLE METHOD
# UVM_INFO ../../src/hdlTop/slaveAgentBFM/AhbSlaveDriverBFM.sv(121) @ 190: reporter [AHB_SLAVE_DRIVER_BFM] Busy = 0
# &&&&values inside monitor proxy '{haddr:3587406370, hselx:1, hburst:INCR16, hmastlock:x, hprot:NORMAL_NONSECURE_DATA, hsize:HALFWORD, hnonsec:0, hexcl:x, hmaster:x, htrans:SEQ, hwdata:'{0, 0, 0, 0, 0, 0, 0, 0, 0, 0, 0, 0, 0, 0, 0, 0, 7929972}, hwstrb:'{0, 0, 0, 0, 0, 0, 0, 0, 0, 0, 0, 0, 0, 0, 0, 0, 10}, hwrite:WRITE, hrdata:'{0, 0, 0, 0, 0, 0, 0, 0, 0, 0, 0, 0, 0, 0, 0, 0, x}, hreadyout:1, hresp:OKAY, hexokay:x, hready:x, noOfWaitStates:0, busyControl:0}&&&
# UVM_INFO ../../src/hvlTop/slaveAgent/AhbSlaveSequenceItemConverter.sv(149) @ 190: reporter [ahbSlaveSequeceItemconverterClass] After randomizing noofwaitstate = 00000000000000000000000000000000
# UVM_INFO ../../src/hvlTop/slaveAgent/AhbSlaveSequenceItemConverter.sv(177) @ 190: reporter [ahbSlaveSequeceItemconverterClass] -------------------------------------------------------------
# UVM_INFO ../../src/hvlTop/slaveAgent/AhbSlaveMonitorProxy.sv(57) @ 190: uvm_test_top.ahbEnvironment.ahbSlaveAgent[0].ahbSlaveMonitorProxy [AhbSlaveMonitorProxy] Sending packet via analysis_port: , 
#  --------------------------------------------------------------------
# Name                Type                 Size  Value                
# --------------------------------------------------------------------
# slave Packet        AhbSlaveTransaction  -     @1260                
#   haddr             integral             32    'hd5d37a22           
#   hselx             integral             1     'b1                  
#   hburst            string               6     INCR16               
#   hmastlock         integral             1     'h0                  
#   hprot             string               21    NORMAL_NONSECURE_DATA
#   hsize             string               8     HALFWORD             
#   hnonsec           integral             1     'h0                  
#   hexcl             integral             1     'h0                  
#   hmaster           integral             1     'd0                  
#   htrans            string               3     SEQ                  
#   hwrite            string               5     WRITE                
#   hreadyout         integral             1     'h1                  
#   hresp             string               4     OKAY                 
#   hexokay           integral             1     'h0                  
#   hready            integral             1     'h0                  
#   choosePacketData  integral             1     'd0                  
#   hwdata[0]         integral             32    'h790074             
#   hwstrb[0]         integral             4     'b1010               
# --------------------------------------------------------------------
# 
# UVM_INFO ../../src/hvlTop/slaveAgent/AhbSlaveCoverage.sv(61) @ 190: uvm_test_top.ahbEnvironment.ahbSlaveAgent[0].ahbSlaveCoverage [AhbSlaveCoverage] AHB SLAVE COVERAGE
# UVM_INFO ../../src/hvlTop/environment/AhbScoreboard.sv(78) @ 190: uvm_test_top.ahbEnvironment.ahbScoreboard [AhbScoreboard] after calling master's analysis fifo get method
# UVM_INFO ../../src/hvlTop/environment/AhbScoreboard.sv(88) @ 190: uvm_test_top.ahbEnvironment.ahbScoreboard [AhbScoreboard] after calling slave's analysis fifo get method
# UVM_INFO ../../src/hvlTop/environment/AhbScoreboard.sv(94) @ 190: uvm_test_top.ahbEnvironment.ahbScoreboard [AhbScoreboard] --
# -----------------------------------------------SCOREBOARD COMPARISIONS--------------------------------------------------
# UVM_INFO ../../src/hvlTop/environment/AhbScoreboard.sv(97) @ 190: uvm_test_top.ahbEnvironment.ahbScoreboard [AhbScoreboard] ahb HWDATA from master and slave is equal
# UVM_INFO ../../src/hvlTop/environment/AhbScoreboard.sv(99) @ 190: uvm_test_top.ahbEnvironment.ahbScoreboard [SB  HWDATA MATCHED] Master HWDATA = 7929972 and Slave HWDATA = 7929972
# UVM_INFO ../../src/hvlTop/environment/AhbScoreboard.sv(112) @ 190: uvm_test_top.ahbEnvironment.ahbScoreboard [AhbScoreboard] ahb HADDR from master and slave is equal
# UVM_INFO ../../src/hvlTop/environment/AhbScoreboard.sv(114) @ 190: uvm_test_top.ahbEnvironment.ahbScoreboard [SB HADDR MATCH] Master HADDR = 'hd5d37a22 and Slave HADDR = 'hd5d37a22
# UVM_INFO ../../src/hvlTop/environment/AhbScoreboard.sv(126) @ 190: uvm_test_top.ahbEnvironment.ahbScoreboard [AhbScoreboard] ahb HWRITE from master and slave is equal
# UVM_INFO ../../src/hvlTop/environment/AhbScoreboard.sv(128) @ 190: uvm_test_top.ahbEnvironment.ahbScoreboard [SB HWRITE MATCH] Master HWRITE = 'h1 and Slave hwrite = 'h1
# UVM_INFO ../../src/hvlTop/environment/AhbScoreboard.sv(166) @ 190: uvm_test_top.ahbEnvironment.ahbScoreboard [AhbScoreboard] --
# -----------------------------------------------END OF SCOREBOARD COMPARISIONS---------------------------------------
# ** Info: HSIZE matches the data width supported by the slave!
#    Time: 190 ns Started: 190 ns  Scope: HdlTop.ahbMasterAgentBFM.ahbMasterMonitorBFM.ahb_assert File: ../../src/hdlTop/masterAgentBFM/AhbMasterAssertion.sv Line: 180
# ** Info: Valid burst type!
#    Time: 190 ns Started: 190 ns  Scope: HdlTop.ahbMasterAgentBFM.ahbMasterMonitorBFM.ahb_assert File: ../../src/hdlTop/masterAgentBFM/AhbMasterAssertion.sv Line: 189
# ** Info: HRESP is OKAY for valid transactions!
#    Time: 190 ns Started: 170 ns  Scope: HdlTop.ahbSlaveAgentBFM.ahbSlaveMonitorBFM.ahb_assert File: ../../src/hdlTop/slaveAgentBFM/AhbSlaveAssertion.sv Line: 50
# ** Info: Valid Write Transfer
#    Time: 190 ns Started: 170 ns  Scope: HdlTop.ahbMasterAgentBFM.ahbMasterMonitorBFM.ahb_cover File: ../../src/hdlTop/masterAgentBFM/AhbMasterCoverProperty.sv Line: 49
# ** Info: Address Aligned with size
#    Time: 190 ns Started: 190 ns  Scope: HdlTop.ahbMasterAgentBFM.ahbMasterMonitorBFM.ahb_cover File: ../../src/hdlTop/masterAgentBFM/AhbMasterCoverProperty.sv Line: 58
# ** Info: HREADYOUT is high during valid transactions!
#    Time: 190 ns Started: 170 ns  Scope: HdlTop.ahbSlaveAgentBFM.ahbSlaveMonitorBFM.ahb_assert File: ../../src/hdlTop/slaveAgentBFM/AhbSlaveAssertion.sv Line: 31
# ** Info: HWDATA is Valid When HWRITE IS HIGH
#    Time: 190 ns Started: 170 ns  Scope: HdlTop.ahbMasterAgentBFM.ahbMasterMonitorBFM.ahb_assert File: ../../src/hdlTop/masterAgentBFM/AhbMasterAssertion.sv Line: 38
# ** Info: HADDR is aligned based on HSIZE
#    Time: 190 ns Started: 190 ns  Scope: HdlTop.ahbMasterAgentBFM.ahbMasterMonitorBFM.ahb_assert File: ../../src/hdlTop/masterAgentBFM/AhbMasterAssertion.sv Line: 57
# ** Info: Hwstrb valid
#    Time: 190 ns Started: 190 ns  Scope: HdlTop.ahbMasterAgentBFM.ahbMasterMonitorBFM.ahb_assert File: ../../src/hdlTop/masterAgentBFM/AhbMasterAssertion.sv Line: 198
# ** Info: HTRANS is Valid
#    Time: 190 ns Started: 170 ns  Scope: HdlTop.ahbMasterAgentBFM.ahbMasterMonitorBFM.ahb_assert File: ../../src/hdlTop/masterAgentBFM/AhbMasterAssertion.sv Line: 47
# ** Info: HMASTLOCK is asserted during a locked transfer
#    Time: 190 ns Started: 190 ns  Scope: HdlTop.ahbMasterAgentBFM.ahbMasterMonitorBFM.ahb_assert File: ../../src/hdlTop/masterAgentBFM/AhbMasterAssertion.sv Line: 104
# ** Info: Hresp is valid
#    Time: 190 ns Started: 170 ns  Scope: HdlTop.ahbSlaveAgentBFM.ahbSlaveMonitorBFM.ahb_cover File: ../../src/hdlTop/slaveAgentBFM/AhbSlaveCoverProperty.sv Line: 57
# &&&&values inside master monitor proxy '{haddr:3587406372, hselx:1, hburst:INCR16, hmastlock:1, hprot:NORMAL_NONSECURE_DATA, hsize:HALFWORD, hnonsec:x, hexcl:x, hmaster:x, htrans:SEQ, hwdata:'{0, 0, 0, 0, 0, 0, 0, 0, 0, 0, 0, 0, 0, 0, 0, 0, 3422587136}, hwstrb:'{0, 0, 0, 0, 0, 0, 0, 0, 0, 0, 0, 0, 0, 0, 0, 0, 6}, hwrite:WRITE, hrdata:'{0, 0, 0, 0, 0, 0, 0, 0, 0, 0, 0, 0, 0, 0, 0, 0, x}, hreadyout:x, hresp:OKAY, hexokay:x, hready:1, noOfWaitStates:0, busyControl:0}&&&
# UVM_INFO ../../src/hvlTop/masterAgent/AhbMasterMonitorProxy.sv(58) @ 210: uvm_test_top.ahbEnvironment.ahbMasterAgent[0].ahbMasterMonitorProxy [AhbMasterMonitorProxy] Sending packet via analysis_port: , 
#  ---------------------------------------------------------------------------
# Name                      Type                  Size  Value                
# ---------------------------------------------------------------------------
# ahbMasterPacket           AhbMasterTransaction  -     @1264                
#   haddr                   integral              32    'hd5d37a24           
#   hselx                   integral              1     'b1                  
#   hburst                  string                6     INCR16               
#   hmastlock               integral              1     'h1                  
#   hprot                   string                21    NORMAL_NONSECURE_DATA
#   hsize                   string                8     HALFWORD             
#   hnonsec                 integral              1     'h0                  
#   hexcl                   integral              1     'h0                  
#   hmaster                 integral              1     'd0                  
#   htrans                  string                3     SEQ                  
#   hwrite                  string                5     WRITE                
#   hreadyout               integral              1     'h0                  
#   hresp                   string                4     OKAY                 
#   hexokay                 integral              1     'h0                  
#   hready                  integral              1     'h1                  
#   noOfwaitStatesDetected  integral              32    'h0                  
#   hwdata[0]               integral              32    'hcc008900           
#   hwstrb[0]               integral              4     'b110                
# ---------------------------------------------------------------------------
# 
# UVM_INFO ../../src/hvlTop/masterAgent/AhbMasterCoverage.sv(180) @ 210: uvm_test_top.ahbEnvironment.ahbMasterAgent[0].ahbMasterCoverage [AhbMasterCoverage] Before calling SAMPLE METHOD
# UVM_INFO ../../src/hvlTop/masterAgent/AhbMasterCoverage.sv(182) @ 210: uvm_test_top.ahbEnvironment.ahbMasterAgent[0].ahbMasterCoverage [AhbMasterCoverage] After calling SAMPLE METHOD
# UVM_INFO ../../src/hdlTop/slaveAgentBFM/AhbSlaveDriverBFM.sv(121) @ 210: reporter [AHB_SLAVE_DRIVER_BFM] Busy = 0
# &&&&values inside monitor proxy '{haddr:3587406372, hselx:1, hburst:INCR16, hmastlock:x, hprot:NORMAL_NONSECURE_DATA, hsize:HALFWORD, hnonsec:0, hexcl:x, hmaster:x, htrans:SEQ, hwdata:'{0, 0, 0, 0, 0, 0, 0, 0, 0, 0, 0, 0, 0, 0, 0, 0, 3422587136}, hwstrb:'{0, 0, 0, 0, 0, 0, 0, 0, 0, 0, 0, 0, 0, 0, 0, 0, 6}, hwrite:WRITE, hrdata:'{0, 0, 0, 0, 0, 0, 0, 0, 0, 0, 0, 0, 0, 0, 0, 0, x}, hreadyout:1, hresp:OKAY, hexokay:x, hready:x, noOfWaitStates:0, busyControl:0}&&&
# UVM_INFO ../../src/hvlTop/slaveAgent/AhbSlaveSequenceItemConverter.sv(149) @ 210: reporter [ahbSlaveSequeceItemconverterClass] After randomizing noofwaitstate = 00000000000000000000000000000000
# UVM_INFO ../../src/hvlTop/slaveAgent/AhbSlaveSequenceItemConverter.sv(177) @ 210: reporter [ahbSlaveSequeceItemconverterClass] -------------------------------------------------------------
# UVM_INFO ../../src/hvlTop/slaveAgent/AhbSlaveMonitorProxy.sv(57) @ 210: uvm_test_top.ahbEnvironment.ahbSlaveAgent[0].ahbSlaveMonitorProxy [AhbSlaveMonitorProxy] Sending packet via analysis_port: , 
#  --------------------------------------------------------------------
# Name                Type                 Size  Value                
# --------------------------------------------------------------------
# slave Packet        AhbSlaveTransaction  -     @1268                
#   haddr             integral             32    'hd5d37a24           
#   hselx             integral             1     'b1                  
#   hburst            string               6     INCR16               
#   hmastlock         integral             1     'h0                  
#   hprot             string               21    NORMAL_NONSECURE_DATA
#   hsize             string               8     HALFWORD             
#   hnonsec           integral             1     'h0                  
#   hexcl             integral             1     'h0                  
#   hmaster           integral             1     'd0                  
#   htrans            string               3     SEQ                  
#   hwrite            string               5     WRITE                
#   hreadyout         integral             1     'h1                  
#   hresp             string               4     OKAY                 
#   hexokay           integral             1     'h0                  
#   hready            integral             1     'h0                  
#   choosePacketData  integral             1     'd0                  
#   hwdata[0]         integral             32    'hcc008900           
#   hwstrb[0]         integral             4     'b110                
# --------------------------------------------------------------------
# 
# UVM_INFO ../../src/hvlTop/slaveAgent/AhbSlaveCoverage.sv(61) @ 210: uvm_test_top.ahbEnvironment.ahbSlaveAgent[0].ahbSlaveCoverage [AhbSlaveCoverage] AHB SLAVE COVERAGE
# UVM_INFO ../../src/hvlTop/environment/AhbScoreboard.sv(78) @ 210: uvm_test_top.ahbEnvironment.ahbScoreboard [AhbScoreboard] after calling master's analysis fifo get method
# UVM_INFO ../../src/hvlTop/environment/AhbScoreboard.sv(88) @ 210: uvm_test_top.ahbEnvironment.ahbScoreboard [AhbScoreboard] after calling slave's analysis fifo get method
# UVM_INFO ../../src/hvlTop/environment/AhbScoreboard.sv(94) @ 210: uvm_test_top.ahbEnvironment.ahbScoreboard [AhbScoreboard] --
# -----------------------------------------------SCOREBOARD COMPARISIONS--------------------------------------------------
# UVM_INFO ../../src/hvlTop/environment/AhbScoreboard.sv(97) @ 210: uvm_test_top.ahbEnvironment.ahbScoreboard [AhbScoreboard] ahb HWDATA from master and slave is equal
