# vsim -vopt work.HvlTop work.HdlTop -voptargs="+acc=npr" -assertdebug "+UVM_TESTNAME=AhbSingleWriteTest" "+UVM_VERBOSITY=UVM_HIGH" "+define+" -l AhbSingleWriteTest_17032025-095909/AhbSingleWriteTest.log -sva -coverage -c -do "log -r /*; add wave -r /*; coverage save -onexit -assert -directive -cvg -codeAll AhbSingleWriteTest_17032025-095909/AhbSingleWriteTest_coverage.ucdb; run -all; exit" -wlf AhbSingleWriteTest_17032025-095909/waveform.wlf 
# Start time: 09:59:10 on Mar 17,2025
# ** Note: (vsim-8009) Loading existing optimized design _opt
# //  Questa Sim
# //  Version 10.6c linux Jul 25 2017
# //
# //  Copyright 1991-2017 Mentor Graphics Corporation
# //  All Rights Reserved.
# //
# //  QuestaSim and its associated documentation contain trade
# //  secrets and commercial or financial information that are the property of
# //  Mentor Graphics Corporation and are privileged, confidential,
# //  and exempt from disclosure under the Freedom of Information Act,
# //  5 U.S.C. Section 552. Furthermore, this information
# //  is prohibited from disclosure under the Trade Secrets Act,
# //  18 U.S.C. Section 1905.
# //
# Loading sv_std.std
# Loading work.AhbSlaveDriverBFM(fast)
# Loading work.AhbSlaveMonitorBFM(fast)
# Loading work.AhbGlobalPackage(fast)
# Loading mtiUvm.uvm_pkg
# Loading work.AhbSlavePackage(fast)
# Loading work.AhbMasterDriverBFM(fast)
# Loading work.AhbMasterMonitorBFM(fast)
# Loading work.AhbMasterPackage(fast)
# Loading work.AhbEnvironmentPackage(fast)
# Loading work.AhbSlaveSequencePackage(fast)
# Loading work.AhbMasterSequencePackage(fast)
# Loading work.AhbVirtualSequencePackage(fast)
# Loading work.AhbBaseTestPackage(fast)
# Loading work.HvlTop(fast)
# Loading work.HdlTop(fast)
# Loading work.AhbInterface_sv_unit(fast)
# Loading work.AhbInterface(fast)
# Loading work.AhbMasterAgentBFM(fast)
# Loading work.AhbMasterDriverBFM_sv_unit(fast)
# Loading work.AhbMasterDriverBFM(fast)
# Loading work.AhbMasterMonitorBFM_sv_unit(fast)
# Loading work.AhbMasterMonitorBFM(fast)
# Loading work.AhbMasterCoverProperty_sv_unit(fast)
# Loading work.AhbMasterCoverProperty(fast)
# Loading work.AhbMasterAssertion_sv_unit(fast)
# Loading work.AhbMasterAssertion(fast)
# Loading work.AhbSlaveAgentBFM(fast)
# Loading work.AhbSlaveDriverBFM_sv_unit(fast)
# Loading work.AhbSlaveDriverBFM(fast)
# Loading work.AhbSlaveMonitorBFM_sv_unit(fast)
# Loading work.AhbSlaveMonitorBFM(fast)
# Loading work.AhbSlaveCoverProperty_sv_unit(fast)
# Loading work.AhbSlaveCoverProperty(fast)
# Loading work.AhbSlaveAssertion_sv_unit(fast)
# Loading work.AhbSlaveAssertion(fast)
# Loading mtiUvm.questa_uvm_pkg(fast)
# Loading /tools/mentor/questasim_10.6c/questasim/uvm-1.1d/linux/uvm_dpi.so
# log -r /*
#  add wave -r /*
#  coverage save -onexit -assert -directive -cvg -codeAll AhbSingleWriteTest_17032025-095909/AhbSingleWriteTest_coverage.ucdb
#  run -all
# ----------------------------------------------------------------
# UVM-1.1d
# (C) 2007-2013 Mentor Graphics Corporation
# (C) 2007-2013 Cadence Design Systems, Inc.
# (C) 2006-2013 Synopsys, Inc.
# (C) 2011-2013 Cypress Semiconductor Corp.
# ----------------------------------------------------------------
# 
#   ***********       IMPORTANT RELEASE NOTES         ************
# 
#   You are using a version of the UVM library that has been compiled
#   with `UVM_NO_DEPRECATED undefined.
#   See http://www.eda.org/svdb/view.php?id=3313 for more details.
# 
#   You are using a version of the UVM library that has been compiled
#   with `UVM_OBJECT_MUST_HAVE_CONSTRUCTOR undefined.
#   See http://www.eda.org/svdb/view.php?id=3770 for more details.
# 
#       (Specify +UVM_NO_RELNOTES to turn off this notice)
# 
# UVM_INFO verilog_src/questa_uvm_pkg-1.2/src/questa_uvm_pkg.sv(215) @ 0: reporter [Questa UVM] QUESTA_UVM-1.2.3
# UVM_INFO verilog_src/questa_uvm_pkg-1.2/src/questa_uvm_pkg.sv(217) @ 0: reporter [Questa UVM]  questa_uvm::init(+struct)
# UVM_INFO @ 0: reporter [RNTST] Running test AhbSingleWriteTest...
# UVM_INFO ../../src/hdlTop/HdlTop.sv(14) @ 0: reporter [HDL_TOP] HDL_TOP
# UVM_INFO ../../src/hdlTop/masterAgentBFM/AhbMasterAgentBFM.sv(10) @ 0: reporter [ahb master agent bfm] AHB MASTER AGENT BFM
# UVM_INFO ../../src/hdlTop/masterAgentBFM/AhbMasterDriverBFM.sv(33) @ 0: reporter [AHB_MASTER_DRIVER_BFM] AHB_MASTER_DRIVER_BFM
# UVM_INFO ../../src/hdlTop/masterAgentBFM/AhbMasterMonitorBFM.sv(39) @ 0: reporter [AHB_MASTER_MONITOR_BFM] AHB MASTER MONITOR BFM
# UVM_INFO ../../src/hdlTop/masterAgentBFM/AhbMasterCoverProperty.sv(32) @ 0: reporter [AhbMasterCoverProperty] AhbMasterCoverProperty
# UVM_INFO ../../src/hdlTop/masterAgentBFM/AhbMasterAssertion.sv(29) @ 0: reporter [MASTER_ASSERTIONS] MASTER_ASSERTIONS
# UVM_INFO ../../src/hdlTop/slaveAgentBFM/AhbSlaveAgentBFM.sv(10) @ 0: reporter [ahb slave agent bfm] AHB SLAVE AGENT BFM
# UVM_INFO ../../src/hdlTop/slaveAgentBFM/AhbSlaveDriverBFM.sv(38) @ 0: reporter [AHB_SLAVE_DRIVER_BFM] AHB_SLAVE_DRIVER_BFM
# UVM_INFO ../../src/hdlTop/slaveAgentBFM/AhbSlaveMonitorBFM.sv(39) @ 0: reporter [AHB_SLAVE_MONITOR_BFM] AHB_SLAVE_MONITOR_BFM
# UVM_INFO ../../src/hdlTop/slaveAgentBFM/AhbSlaveCoverProperty.sv(32) @ 0: reporter [AhbSlaveCoverProperty] AhbSlaveCoverProperty
# UVM_INFO ../../src/hvlTop/tb/test/AhbBaseTest.sv(50) @ 0: uvm_test_top [AhbSingleWriteTest] 
# AHB_MASTER_CONFIG[0]
# ----------------------------------------------------------
# Name                     Type                  Size  Value
# ----------------------------------------------------------
# AhbMasterAgentConfig[0]  AhbMasterAgentConfig  -     @497 
#   is_active              integral              1     1    
#   hasCoverage            integral              1     1    
# ----------------------------------------------------------
# 
# UVM_INFO ../../src/hvlTop/tb/test/AhbBaseTest.sv(62) @ 0: uvm_test_top [AhbSingleWriteTest] 
# AHB_SLAVE_CONFIG[0]
# -------------------------------------------------------------
# Name                    Type                 Size  Value     
# -------------------------------------------------------------
# AhbSlaveAgentConfig[0]  AhbSlaveAgentConfig  -     @502      
#   is_active             string               10    UVM_ACTIVE
#   hasCoverage           integral             1     1         
#   maximumAddress        integral             32    'h0       
#   minimumAddress        integral             32    'h0       
# -------------------------------------------------------------
# 
# UVM_INFO ../../src/hvlTop/tb/test/AhbBaseTest.sv(66) @ 0: uvm_test_top [AhbSingleWriteTest] 
# AHB_ENV_CONFIG
# --------------------------------------------------------
# Name                   Type                  Size  Value
# --------------------------------------------------------
# ahbEnvironmentConfig   AhbEnvironmentConfig  -     @496 
#   hasScoreboard        integral              1     1    
#   hasVirtualSequencer  integral              1     1    
#   noOfMasters          integral              32    'd1  
#   noOfSlaves           integral              32    'd1  
# --------------------------------------------------------
# 
# UVM_INFO @ 0: reporter [UVMTOP] UVM testbench topology:
# -----------------------------------------------------------------------
# Name                            Type                        Size  Value
# -----------------------------------------------------------------------
# uvm_test_top                    AhbSingleWriteTest          -     @473 
#   ahbEnvironment                AhbEnvironment              -     @511 
#     ahbMasterAgent[0]           AhbMasterAgent              -     @520 
#       ahbMasterCoverage         AhbMasterCoverage           -     @893 
#         analysis_imp            uvm_analysis_imp            -     @900 
#       ahbMasterDriverProxy      AhbMasterDriverProxy        -     @855 
#         rsp_port                uvm_analysis_port           -     @870 
#         seq_item_port           uvm_seq_item_pull_port      -     @862 
#       ahbMasterMonitorProxy     AhbMasterMonitorProxy       -     @878 
#         ahbMasterAnalysisPort   uvm_analysis_port           -     @885 
#       ahbMasterSequencer        AhbMasterSequencer          -     @746 
#         rsp_export              uvm_analysis_export         -     @753 
#         seq_item_export         uvm_seq_item_pull_imp       -     @847 
#         arbitration_queue       array                       0     -    
#         lock_queue              array                       0     -    
#         num_last_reqs           integral                    32    'd1  
#         num_last_rsps           integral                    32    'd1  
#     ahbScoreboard               AhbScoreboard               -     @644 
#       ahbMasterAnalysisFifo[0]  uvm_tlm_analysis_fifo #(T)  -     @651 
#         analysis_export         uvm_analysis_imp            -     @690 
#         get_ap                  uvm_analysis_port           -     @682 
#         get_peek_export         uvm_get_peek_imp            -     @666 
#         put_ap                  uvm_analysis_port           -     @674 
#         put_export              uvm_put_imp                 -     @658 
#       ahbSlaveAnalysisFifo[0]   uvm_tlm_analysis_fifo #(T)  -     @698 
#         analysis_export         uvm_analysis_imp            -     @737 
#         get_ap                  uvm_analysis_port           -     @729 
#         get_peek_export         uvm_get_peek_imp            -     @713 
#         put_ap                  uvm_analysis_port           -     @721 
#         put_export              uvm_put_imp                 -     @705 
#     ahbSlaveAgent[0]            AhbSlaveAgent               -     @528 
#       ahbSlaveCoverage          AhbSlaveCoverage            -     @1063
#         analysis_imp            uvm_analysis_imp            -     @1070
#       ahbSlaveDriverProxy       AhbSlaveDriverProxy         -     @1025
#         rsp_port                uvm_analysis_port           -     @1040
#         seq_item_port           uvm_seq_item_pull_port      -     @1032
#       ahbSlaveMonitorProxy      AhbSlaveMonitorProxy        -     @1048
#         ahbSlaveAnalysisPort    uvm_analysis_port           -     @1055
#       ahbSlaveSequencer         AhbSlaveSequencer           -     @916 
#         rsp_export              uvm_analysis_export         -     @923 
#         seq_item_export         uvm_seq_item_pull_imp       -     @1017
#         arbitration_queue       array                       0     -    
#         lock_queue              array                       0     -    
#         num_last_reqs           integral                    32    'd1  
#         num_last_rsps           integral                    32    'd1  
#     ahbVirtualSequencer         AhbVirtualSequencer         -     @535 
#       rsp_export                uvm_analysis_export         -     @542 
#       seq_item_export           uvm_seq_item_pull_imp       -     @636 
#       arbitration_queue         array                       0     -    
#       lock_queue                array                       0     -    
#       num_last_reqs             integral                    32    'd1  
#       num_last_rsps             integral                    32    'd1  
# -----------------------------------------------------------------------
# 
# UVM_INFO verilog_src/questa_uvm_pkg-1.2/src/questa_uvm_pkg.sv(277) @ 0: reporter [Questa UVM] End Of Elaboration
# UVM_INFO ../../src/hvlTop/tb/test/AhbSingleWriteTest.sv(28) @ 0: uvm_test_top [AhbSingleWriteTest] AhbSingleWriteTest
# UVM_INFO ../../src/hvlTop/slaveAgent/AhbSlaveDriverProxy.sv(48) @ 0: uvm_test_top.ahbEnvironment.ahbSlaveAgent[0].ahbSlaveDriverProxy [AhbSlaveDriverProxy]  BEFORERESET 
#  
# UVM_INFO ../../src/hvlTop/masterAgent/AhbMasterMonitorProxy.sv(41) @ 0: uvm_test_top.ahbEnvironment.ahbMasterAgent[0].ahbMasterMonitorProxy [AhbMasterMonitorProxy] Inside the master_monitor_proxy
# UVM_INFO ../../src/hdlTop/masterAgentBFM/AhbMasterDriverBFM.sv(38) @ 15: reporter [AHB_MASTER_DRIVER_BFM] SYSTEM RESET DETECTED
# UVM_INFO ../../src/hdlTop/masterAgentBFM/AhbMasterMonitorBFM.sv(44) @ 15: reporter [AHB_MASTER_MONITOR_BFM] system reset detected
# UVM_INFO ../../src/hdlTop/slaveAgentBFM/AhbSlaveDriverBFM.sv(43) @ 15: reporter [AHB_SLAVE_DRIVER_BFM] SYSTEM RESET DETECTED
# UVM_INFO ../../src/hdlTop/slaveAgentBFM/AhbSlaveMonitorBFM.sv(44) @ 15: reporter [AHB_SLAVE_MONITOR_BFM] SYSTEM_RESET_DETECTED
# UVM_INFO ../../src/hdlTop/masterAgentBFM/AhbMasterDriverBFM.sv(41) @ 30: reporter [AHB_MASTER_DRIVER_BFM] SYSTEM RESET DEACTIVATED
# UVM_INFO ../../src/hdlTop/masterAgentBFM/AhbMasterMonitorBFM.sv(47) @ 30: reporter [AHB_MASTER_MONITOR_BFM] system reset deactivated
# UVM_INFO ../../src/hdlTop/slaveAgentBFM/AhbSlaveDriverBFM.sv(46) @ 30: reporter [AHB_SLAVE_DRIVER_BFM] SYSTEM RESET DEACTIVATED
# UVM_INFO ../../src/hdlTop/slaveAgentBFM/AhbSlaveMonitorBFM.sv(47) @ 30: reporter [AHB_SLAVE_MONITOR_BFM] SYSTEM_RESET_DEACTIVATED
# ---------------------------------------------------------
# Name                Type                 Size  Value     
# ---------------------------------------------------------
# req                 AhbSlaveTransaction  -     @1120     
#   haddr             integral             32    'h0       
#   hselx             integral             1     'b0       
#   hburst            string               0     ""        
#   hmastlock         integral             1     'h0       
#   hprot             string               0     ""        
#   hsize             string               0     ""        
#   hnonsec           integral             1     'h0       
#   hexcl             integral             1     'h0       
#   hmaster           integral             1     'd0       
#   htrans            string               0     ""        
#   hwrite            string               4     READ      
#   hreadyout         integral             1     'h0       
#   hresp             string               0     ""        
#   hexokay           integral             1     'h0       
#   hready            integral             1     'h0       
#   choosePacketData  integral             1     'd0       
#   hwdata[0]         integral             32    'haa36512a
#   hwdata[1]         integral             32    'hf5af1b97
#   hwdata[2]         integral             32    'h92d9baa2
#   hwdata[3]         integral             32    'h6399b7f0
#   hwdata[4]         integral             32    'h9123f043
#   hwdata[5]         integral             32    'hc07a3d17
#   hwdata[6]         integral             32    'h9a635059
#   hwdata[7]         integral             32    'hc3c838e6
#   hwdata[8]         integral             32    'h4bc26781
#   hwdata[9]         integral             32    'h6e5da384
#   hwdata[10]        integral             32    'h5983120e
#   hwdata[11]        integral             32    'hf7e4793d
#   hwdata[12]        integral             32    'h17a1727 
#   hwdata[13]        integral             32    'haa702cab
#   hwdata[14]        integral             32    'he72554b8
#   hwdata[15]        integral             32    'h3cdfa50d
#   hwstrb[0]         integral             4     'b1       
#   hwstrb[1]         integral             4     'b1001    
#   hwstrb[2]         integral             4     'b101     
#   hwstrb[3]         integral             4     'b10      
#   hwstrb[4]         integral             4     'b1111    
#   hwstrb[5]         integral             4     'b1011    
#   hwstrb[6]         integral             4     'b10      
#   hwstrb[7]         integral             4     'b1110    
#   hwstrb[8]         integral             4     'b11      
#   hwstrb[9]         integral             4     'b101     
#   hwstrb[10]        integral             4     'b1001    
#   hwstrb[11]        integral             4     'b100     
#   hwstrb[12]        integral             4     'b1       
#   hwstrb[13]        integral             4     'b1111    
#   hwstrb[14]        integral             4     'b111     
#   hwstrb[15]        integral             4     'b100     
#   hrdata[0]         integral             32    'hc8311946
#   hrdata[1]         integral             32    'hb8153115
#   hrdata[2]         integral             32    'h288cc6  
#   hrdata[3]         integral             32    'h5bea376e
#   hrdata[4]         integral             32    'hd9d83c42
#   hrdata[5]         integral             32    'h932e3db9
#   hrdata[6]         integral             32    'h287f7d7 
#   hrdata[7]         integral             32    'h7f38e27c
#   hrdata[8]         integral             32    'h983be4d3
#   hrdata[9]         integral             32    'hb81e7e0f
#   hrdata[10]        integral             32    'hd1067dc3
#   hrdata[11]        integral             32    'he49f0852
#   hrdata[12]        integral             32    'h7d0a616a
#   hrdata[13]        integral             32    'h21c128ba
#   hrdata[14]        integral             32    'hace10f6 
#   hrdata[15]        integral             32    'h87943005
# ---------------------------------------------------------
# UVM_INFO ../../src/hvlTop/masterAgent/masterSequences/AhbMasterSequence.sv(125) @ 30: uvm_test_top.ahbEnvironment.ahbMasterAgent[0].ahbMasterSequencer@@ahbMasterSequence [AHB] req is of type: AhbMasterTransaction
# UVM_INFO ../../src/hvlTop/slaveAgent/AhbSlaveSequenceItemConverter.sv(65) @ 30: reporter [ahbSlaveSequeceItemconverterClass] After randomizing noofwaitstate = 00000000000000000000000000000000
# UVM_INFO ../../src/hvlTop/slaveAgent/AhbSlaveSequenceItemConverter.sv(95) @ 30: reporter [ahbSlaveSequeceItemconverterClass] -------------------------------------------------------------
# UVM_INFO ../../src/hdlTop/slaveAgentBFM/AhbSlaveDriverBFM.sv(52) @ 30: reporter [AHB_SLAVE_DRIVER_BFM] DRIVE TO BFM TASK
# UVM_INFO ../../src/hvlTop/masterAgent/AhbMasterDriverProxy.sv(58) @ 30: uvm_test_top.ahbEnvironment.ahbMasterAgent[0].ahbMasterDriverProxy [AhbMasterDriverProxy] REQ-MASTERTX 
#  ---------------------------------------------------------------------------
# Name                      Type                  Size  Value                
# ---------------------------------------------------------------------------
# req                       AhbMasterTransaction  -     @1124                
#   haddr                   integral              32    'hd5d37a18           
#   hselx                   integral              1     'b1                  
#   hburst                  string                6     SINGLE               
#   hmastlock               integral              1     'h1                  
#   hprot                   string                21    NORMAL_NONSECURE_DATA
#   hsize                   string                8     HALFWORD             
#   hnonsec                 integral              1     'h0                  
#   hexcl                   integral              1     'h0                  
#   hmaster                 integral              1     'd0                  
#   htrans                  string                6     NONSEQ               
#   hwrite                  string                5     WRITE                
#   hreadyout               integral              1     'h0                  
#   hresp                   string                0     ""                   
#   hexokay                 integral              1     'h0                  
#   hready                  integral              1     'h0                  
#   noOfwaitStatesDetected  integral              32    'h0                  
#   hwdata[0]               integral              32    'h3c895ac            
#   hwstrb[0]               integral              4     'b101                
#   busyControl[0]          integral              1     'h0                  
# ---------------------------------------------------------------------------
# 
# UVM_INFO ../../src/hdlTop/masterAgentBFM/AhbMasterDriverBFM.sv(47) @ 30: reporter [AHB_MASTER_DRIVER_BFM] DRIVE TO BFM TASK
# UVM_INFO ../../src/hdlTop/masterAgentBFM/AhbMasterDriverBFM.sv(58) @ 30: reporter [INSIDESINGLETRANSFER] BFM
# UVM_INFO ../../src/hdlTop/masterAgentBFM/AhbMasterDriverBFM.sv(61) @ 50: reporter [AHB_MASTER_DRIVER_BFM] DRIVING THE Single Transfer
# &&&&values inside master monitor proxy '{haddr:x, hselx:x, hburst:x, hmastlock:x, hprot:x, hsize:x, hnonsec:x, hexcl:x, hmaster:x, htrans:IDLE, hwdata:'{x, x, x, x, x, x, x, x, x, x, x, x, x, x, x, x, x}, hwstrb:'{0, 0, 0, 0, 0, 0, 0, 0, 0, 0, 0, 0, 0, 0, 0, 0, x}, hwrite:READ, hrdata:'{0, 0, 0, 0, 0, 0, 0, 0, 0, 0, 0, 0, 0, 0, 0, 0, x}, hreadyout:x, hresp:x, hexokay:x, hready:x, noOfWaitStates:0, busyControl:0}&&&
# UVM_INFO ../../src/hvlTop/masterAgent/AhbMasterMonitorProxy.sv(58) @ 50: uvm_test_top.ahbEnvironment.ahbMasterAgent[0].ahbMasterMonitorProxy [AhbMasterMonitorProxy] Sending packet via analysis_port: , 
#  -----------------------------------------------------------
# Name                      Type                  Size  Value
# -----------------------------------------------------------
# ahbMasterPacket           AhbMasterTransaction  -     @1200
#   haddr                   integral              32    'h0  
#   hselx                   integral              1     'b0  
#   hburst                  string                0     ""   
#   hmastlock               integral              1     'h0  
#   hprot                   string                0     ""   
#   hsize                   string                0     ""   
#   hnonsec                 integral              1     'h0  
#   hexcl                   integral              1     'h0  
#   hmaster                 integral              1     'd0  
#   htrans                  string                4     IDLE 
#   hwrite                  string                4     READ 
#   hreadyout               integral              1     'h0  
#   hresp                   string                0     ""   
#   hexokay                 integral              1     'h0  
#   hready                  integral              1     'h0  
#   noOfwaitStatesDetected  integral              32    'h0  
# -----------------------------------------------------------
# 
# UVM_INFO ../../src/hvlTop/masterAgent/AhbMasterCoverage.sv(181) @ 50: uvm_test_top.ahbEnvironment.ahbMasterAgent[0].ahbMasterCoverage [AhbMasterCoverage] Before calling SAMPLE METHOD
# UVM_INFO ../../src/hvlTop/masterAgent/AhbMasterCoverage.sv(183) @ 50: uvm_test_top.ahbEnvironment.ahbMasterAgent[0].ahbMasterCoverage [AhbMasterCoverage] After calling SAMPLE METHOD
# &&&&values inside monitor proxy '{haddr:x, hselx:x, hburst:x, hmastlock:x, hprot:x, hsize:x, hnonsec:x, hexcl:x, hmaster:x, htrans:IDLE, hwdata:'{x, x, x, x, x, x, x, x, x, x, x, x, x, x, x, x, x}, hwstrb:'{x, x, x, x, x, x, x, x, x, x, x, x, x, x, x, x, x}, hwrite:READ, hrdata:'{0, 0, 0, 0, 0, 0, 0, 0, 0, 0, 0, 0, 0, 0, 0, 0, x}, hreadyout:x, hresp:x, hexokay:x, hready:x, noOfWaitStates:0, busyControl:0}&&&
# UVM_INFO ../../src/hvlTop/slaveAgent/AhbSlaveSequenceItemConverter.sv(149) @ 50: reporter [ahbSlaveSequeceItemconverterClass] After randomizing noofwaitstate = 00000000000000000000000000000000
# UVM_INFO ../../src/hvlTop/slaveAgent/AhbSlaveSequenceItemConverter.sv(177) @ 50: reporter [ahbSlaveSequeceItemconverterClass] -------------------------------------------------------------
# UVM_INFO ../../src/hvlTop/slaveAgent/AhbSlaveMonitorProxy.sv(57) @ 50: uvm_test_top.ahbEnvironment.ahbSlaveAgent[0].ahbSlaveMonitorProxy [AhbSlaveMonitorProxy] Sending packet via analysis_port: , 
#  ----------------------------------------------------
# Name                Type                 Size  Value
# ----------------------------------------------------
# slave Packet        AhbSlaveTransaction  -     @1204
#   haddr             integral             32    'h0  
#   hselx             integral             1     'b0  
#   hburst            string               0     ""   
#   hmastlock         integral             1     'h0  
#   hprot             string               0     ""   
#   hsize             string               0     ""   
#   hnonsec           integral             1     'h0  
#   hexcl             integral             1     'h0  
#   hmaster           integral             1     'd0  
#   htrans            string               4     IDLE 
#   hwrite            string               4     READ 
#   hreadyout         integral             1     'h0  
#   hresp             string               0     ""   
#   hexokay           integral             1     'h0  
#   hready            integral             1     'h0  
#   choosePacketData  integral             1     'd0  
# ----------------------------------------------------
# 
# UVM_INFO ../../src/hvlTop/slaveAgent/AhbSlaveCoverage.sv(61) @ 50: uvm_test_top.ahbEnvironment.ahbSlaveAgent[0].ahbSlaveCoverage [AhbSlaveCoverage] AHB SLAVE COVERAGE
# UVM_INFO ../../src/hvlTop/environment/AhbScoreboard.sv(78) @ 50: uvm_test_top.ahbEnvironment.ahbScoreboard [AhbScoreboard] after calling master's analysis fifo get method
# UVM_INFO ../../src/hvlTop/environment/AhbScoreboard.sv(88) @ 50: uvm_test_top.ahbEnvironment.ahbScoreboard [AhbScoreboard] after calling slave's analysis fifo get method
# UVM_INFO ../../src/hdlTop/slaveAgentBFM/AhbSlaveDriverBFM.sv(60) @ 50: reporter [AHB_SLAVE_DRIVER_BFM] AFTERHSELASSERTED HTRANSFER = 2
# UVM_INFO ../../src/hdlTop/slaveAgentBFM/AhbSlaveDriverBFM.sv(71) @ 50: reporter [AHB_SLAVE_DRIVER_BFM] DRIVING THE Single Transfer
# UVM_INFO ../../src/hdlTop/masterAgentBFM/AhbMasterDriverBFM.sv(86) @ 70: reporter [AHB_MASTER_DRIVER_BFM] Write Data: x to Address: d5d37a18
# UVM_INFO ../../src/hdlTop/masterAgentBFM/AhbMasterDriverBFM.sv(87) @ 70: reporter [AHB_MASTER_DRIVER_BFM] Write Data: x to Address: d5d37a18
# &&&&values inside master monitor proxy '{haddr:3587406360, hselx:1, hburst:SINGLE, hmastlock:1, hprot:NORMAL_NONSECURE_DATA, hsize:HALFWORD, hnonsec:x, hexcl:x, hmaster:x, htrans:NONSEQ, hwdata:'{0, 0, 0, 0, 0, 0, 0, 0, 0, 0, 0, 0, 0, 0, 0, 0, x}, hwstrb:'{0, 0, 0, 0, 0, 0, 0, 0, 0, 0, 0, 0, 0, 0, 0, 0, 5}, hwrite:WRITE, hrdata:'{0, 0, 0, 0, 0, 0, 0, 0, 0, 0, 0, 0, 0, 0, 0, 0, x}, hreadyout:x, hresp:x, hexokay:x, hready:1, noOfWaitStates:0, busyControl:0}&&&
# UVM_INFO ../../src/hvlTop/masterAgent/AhbMasterMonitorProxy.sv(58) @ 70: uvm_test_top.ahbEnvironment.ahbMasterAgent[0].ahbMasterMonitorProxy [AhbMasterMonitorProxy] Sending packet via analysis_port: , 
#  ---------------------------------------------------------------------------
# Name                      Type                  Size  Value                
# ---------------------------------------------------------------------------
# ahbMasterPacket           AhbMasterTransaction  -     @1208                
#   haddr                   integral              32    'hd5d37a18           
#   hselx                   integral              1     'b1                  
#   hburst                  string                6     SINGLE               
#   hmastlock               integral              1     'h1                  
#   hprot                   string                21    NORMAL_NONSECURE_DATA
#   hsize                   string                8     HALFWORD             
#   hnonsec                 integral              1     'h0                  
#   hexcl                   integral              1     'h0                  
#   hmaster                 integral              1     'd0                  
#   htrans                  string                6     NONSEQ               
#   hwrite                  string                5     WRITE                
#   hreadyout               integral              1     'h0                  
#   hresp                   string                0     ""                   
#   hexokay                 integral              1     'h0                  
#   hready                  integral              1     'h1                  
#   noOfwaitStatesDetected  integral              32    'h0                  
# ---------------------------------------------------------------------------
# 
# UVM_INFO ../../src/hvlTop/masterAgent/AhbMasterCoverage.sv(181) @ 70: uvm_test_top.ahbEnvironment.ahbMasterAgent[0].ahbMasterCoverage [AhbMasterCoverage] Before calling SAMPLE METHOD
# UVM_INFO ../../src/hvlTop/masterAgent/AhbMasterCoverage.sv(183) @ 70: uvm_test_top.ahbEnvironment.ahbMasterAgent[0].ahbMasterCoverage [AhbMasterCoverage] After calling SAMPLE METHOD
# UVM_INFO ../../src/hdlTop/slaveAgentBFM/AhbSlaveDriverBFM.sv(171) @ 70: reporter [AHB_SLAVE_DRIVER_BFM] Bus is now out of wait cycles
# UVM_INFO ../../src/hvlTop/slaveAgent/AhbSlaveSequenceItemConverter.sv(149) @ 70: reporter [ahbSlaveSequeceItemconverterClass] After randomizing noofwaitstate = 00000000000000000000000000000000
# UVM_INFO ../../src/hvlTop/slaveAgent/AhbSlaveSequenceItemConverter.sv(177) @ 70: reporter [ahbSlaveSequeceItemconverterClass] -------------------------------------------------------------
# &&&&values inside monitor proxy '{haddr:3587406360, hselx:1, hburst:SINGLE, hmastlock:x, hprot:NORMAL_NONSECURE_DATA, hsize:HALFWORD, hnonsec:0, hexcl:x, hmaster:x, htrans:NONSEQ, hwdata:'{0, 0, 0, 0, 0, 0, 0, 0, 0, 0, 0, 0, 0, 0, 0, 0, x}, hwstrb:'{0, 0, 0, 0, 0, 0, 0, 0, 0, 0, 0, 0, 0, 0, 0, 0, 5}, hwrite:WRITE, hrdata:'{0, 0, 0, 0, 0, 0, 0, 0, 0, 0, 0, 0, 0, 0, 0, 0, x}, hreadyout:1, hresp:x, hexokay:x, hready:x, noOfWaitStates:0, busyControl:0}&&&
# UVM_INFO ../../src/hvlTop/slaveAgent/AhbSlaveSequenceItemConverter.sv(149) @ 70: reporter [ahbSlaveSequeceItemconverterClass] After randomizing noofwaitstate = 00000000000000000000000000000000
# UVM_INFO ../../src/hvlTop/slaveAgent/AhbSlaveSequenceItemConverter.sv(177) @ 70: reporter [ahbSlaveSequeceItemconverterClass] -------------------------------------------------------------
# UVM_INFO ../../src/hvlTop/slaveAgent/AhbSlaveMonitorProxy.sv(57) @ 70: uvm_test_top.ahbEnvironment.ahbSlaveAgent[0].ahbSlaveMonitorProxy [AhbSlaveMonitorProxy] Sending packet via analysis_port: , 
#  --------------------------------------------------------------------
# Name                Type                 Size  Value                
# --------------------------------------------------------------------
# slave Packet        AhbSlaveTransaction  -     @1212                
#   haddr             integral             32    'hd5d37a18           
#   hselx             integral             1     'b1                  
#   hburst            string               6     SINGLE               
#   hmastlock         integral             1     'h0                  
#   hprot             string               21    NORMAL_NONSECURE_DATA
#   hsize             string               8     HALFWORD             
#   hnonsec           integral             1     'h0                  
#   hexcl             integral             1     'h0                  
#   hmaster           integral             1     'd0                  
#   htrans            string               6     NONSEQ               
#   hwrite            string               5     WRITE                
#   hreadyout         integral             1     'h1                  
#   hresp             string               0     ""                   
#   hexokay           integral             1     'h0                  
#   hready            integral             1     'h0                  
#   choosePacketData  integral             1     'd0                  
# --------------------------------------------------------------------
# 
# UVM_INFO ../../src/hvlTop/slaveAgent/AhbSlaveCoverage.sv(61) @ 70: uvm_test_top.ahbEnvironment.ahbSlaveAgent[0].ahbSlaveCoverage [AhbSlaveCoverage] AHB SLAVE COVERAGE
# UVM_INFO ../../src/hvlTop/environment/AhbScoreboard.sv(78) @ 70: uvm_test_top.ahbEnvironment.ahbScoreboard [AhbScoreboard] after calling master's analysis fifo get method
# UVM_INFO ../../src/hvlTop/environment/AhbScoreboard.sv(88) @ 70: uvm_test_top.ahbEnvironment.ahbScoreboard [AhbScoreboard] after calling slave's analysis fifo get method
# UVM_INFO ../../src/hvlTop/environment/AhbScoreboard.sv(94) @ 70: uvm_test_top.ahbEnvironment.ahbScoreboard [AhbScoreboard] --
# -----------------------------------------------SCOREBOARD COMPARISIONS--------------------------------------------------
# UVM_INFO ../../src/hvlTop/environment/AhbScoreboard.sv(97) @ 70: uvm_test_top.ahbEnvironment.ahbScoreboard [AhbScoreboard] ahb HWDATA from master and slave is equal
# UVM_INFO ../../src/hvlTop/environment/AhbScoreboard.sv(99) @ 70: uvm_test_top.ahbEnvironment.ahbScoreboard [SB  HWDATA MATCHED] Master HWDATA =  and Slave HWDATA = 
# UVM_INFO ../../src/hvlTop/environment/AhbScoreboard.sv(112) @ 70: uvm_test_top.ahbEnvironment.ahbScoreboard [AhbScoreboard] ahb HADDR from master and slave is equal
# UVM_INFO ../../src/hvlTop/environment/AhbScoreboard.sv(114) @ 70: uvm_test_top.ahbEnvironment.ahbScoreboard [SB HADDR MATCH] Master HADDR = 'hd5d37a18 and Slave HADDR = 'hd5d37a18
# UVM_INFO ../../src/hvlTop/environment/AhbScoreboard.sv(126) @ 70: uvm_test_top.ahbEnvironment.ahbScoreboard [AhbScoreboard] ahb HWRITE from master and slave is equal
# UVM_INFO ../../src/hvlTop/environment/AhbScoreboard.sv(128) @ 70: uvm_test_top.ahbEnvironment.ahbScoreboard [SB HWRITE MATCH] Master HWRITE = 'h1 and Slave hwrite = 'h1
# UVM_INFO ../../src/hvlTop/environment/AhbScoreboard.sv(166) @ 70: uvm_test_top.ahbEnvironment.ahbScoreboard [AhbScoreboard] --
# -----------------------------------------------END OF SCOREBOARD COMPARISIONS---------------------------------------
# ** Info: Hwstrb valid
#    Time: 70 ns Started: 70 ns  Scope: HdlTop.ahbMasterAgentBFM.ahbMasterMonitorBFM.ahb_assert File: ../../src/hdlTop/masterAgentBFM/AhbMasterAssertion.sv Line: 153
# ** Info: HMASTLOCK is asserted during a locked transfer
#    Time: 70 ns Started: 70 ns  Scope: HdlTop.ahbMasterAgentBFM.ahbMasterMonitorBFM.ahb_assert File: ../../src/hdlTop/masterAgentBFM/AhbMasterAssertion.sv Line: 77
# ** Info: HSIZE matches the data width supported by the slave!
#    Time: 70 ns Started: 70 ns  Scope: HdlTop.ahbMasterAgentBFM.ahbMasterMonitorBFM.ahb_assert File: ../../src/hdlTop/masterAgentBFM/AhbMasterAssertion.sv Line: 135
# ** Info: Valid burst type!
#    Time: 70 ns Started: 70 ns  Scope: HdlTop.ahbMasterAgentBFM.ahbMasterMonitorBFM.ahb_assert File: ../../src/hdlTop/masterAgentBFM/AhbMasterAssertion.sv Line: 144
# ** Info: Hwstrb is valid
#    Time: 70 ns Started: 70 ns  Scope: HdlTop.ahbMasterAgentBFM.ahbMasterMonitorBFM.ahb_cover File: ../../src/hdlTop/masterAgentBFM/AhbMasterCoverProperty.sv Line: 98
# UVM_INFO ../../src/hdlTop/masterAgentBFM/AhbMasterDriverBFM.sv(192) @ 90: reporter [AHB_MASTER_DRIVER_BFM] Bus is now IDLE
# &&&&values inside master monitor proxy '{haddr:3587406360, hselx:1, hburst:SINGLE, hmastlock:1, hprot:NORMAL_NONSECURE_DATA, hsize:HALFWORD, hnonsec:x, hexcl:x, hmaster:x, htrans:NONSEQ, hwdata:'{0, 0, 0, 0, 0, 0, 0, 0, 0, 0, 0, 0, 0, 0, 0, 0, 13107372}, hwstrb:'{0, 0, 0, 0, 0, 0, 0, 0, 0, 0, 0, 0, 0, 0, 0, 0, 5}, hwrite:WRITE, hrdata:'{0, 0, 0, 0, 0, 0, 0, 0, 0, 0, 0, 0, 0, 0, 0, 0, x}, hreadyout:x, hresp:OKAY, hexokay:x, hready:1, noOfWaitStates:0, busyControl:0}&&&
# UVM_INFO ../../src/hvlTop/masterAgent/AhbMasterMonitorProxy.sv(58) @ 90: uvm_test_top.ahbEnvironment.ahbMasterAgent[0].ahbMasterMonitorProxy [AhbMasterMonitorProxy] Sending packet via analysis_port: , 
#  ---------------------------------------------------------------------------
# Name                      Type                  Size  Value                
# ---------------------------------------------------------------------------
# ahbMasterPacket           AhbMasterTransaction  -     @1217                
#   haddr                   integral              32    'hd5d37a18           
#   hselx                   integral              1     'b1                  
#   hburst                  string                6     SINGLE               
#   hmastlock               integral              1     'h1                  
#   hprot                   string                21    NORMAL_NONSECURE_DATA
#   hsize                   string                8     HALFWORD             
#   hnonsec                 integral              1     'h0                  
#   hexcl                   integral              1     'h0                  
#   hmaster                 integral              1     'd0                  
#   htrans                  string                6     NONSEQ               
#   hwrite                  string                5     WRITE                
#   hreadyout               integral              1     'h0                  
#   hresp                   string                4     OKAY                 
#   hexokay                 integral              1     'h0                  
#   hready                  integral              1     'h1                  
#   noOfwaitStatesDetected  integral              32    'h0                  
#   hwdata[0]               integral              32    'hc800ac             
#   hwstrb[0]               integral              4     'b101                
# ---------------------------------------------------------------------------
# 
# UVM_INFO ../../src/hvlTop/masterAgent/AhbMasterCoverage.sv(181) @ 90: uvm_test_top.ahbEnvironment.ahbMasterAgent[0].ahbMasterCoverage [AhbMasterCoverage] Before calling SAMPLE METHOD
# UVM_INFO ../../src/hvlTop/masterAgent/AhbMasterCoverage.sv(183) @ 90: uvm_test_top.ahbEnvironment.ahbMasterAgent[0].ahbMasterCoverage [AhbMasterCoverage] After calling SAMPLE METHOD
# &&&&values inside monitor proxy '{haddr:3587406360, hselx:1, hburst:SINGLE, hmastlock:x, hprot:NORMAL_NONSECURE_DATA, hsize:HALFWORD, hnonsec:0, hexcl:x, hmaster:x, htrans:NONSEQ, hwdata:'{0, 0, 0, 0, 0, 0, 0, 0, 0, 0, 0, 0, 0, 0, 0, 0, 13107372}, hwstrb:'{0, 0, 0, 0, 0, 0, 0, 0, 0, 0, 0, 0, 0, 0, 0, 0, 5}, hwrite:WRITE, hrdata:'{0, 0, 0, 0, 0, 0, 0, 0, 0, 0, 0, 0, 0, 0, 0, 0, x}, hreadyout:1, hresp:OKAY, hexokay:x, hready:x, noOfWaitStates:0, busyControl:0}&&&
# UVM_INFO ../../src/hvlTop/slaveAgent/AhbSlaveSequenceItemConverter.sv(149) @ 90: reporter [ahbSlaveSequeceItemconverterClass] After randomizing noofwaitstate = 00000000000000000000000000000000
# UVM_INFO ../../src/hvlTop/slaveAgent/AhbSlaveSequenceItemConverter.sv(177) @ 90: reporter [ahbSlaveSequeceItemconverterClass] -------------------------------------------------------------
# UVM_INFO ../../src/hvlTop/slaveAgent/AhbSlaveMonitorProxy.sv(57) @ 90: uvm_test_top.ahbEnvironment.ahbSlaveAgent[0].ahbSlaveMonitorProxy [AhbSlaveMonitorProxy] Sending packet via analysis_port: , 
#  --------------------------------------------------------------------
# Name                Type                 Size  Value                
# --------------------------------------------------------------------
# slave Packet        AhbSlaveTransaction  -     @1221                
#   haddr             integral             32    'hd5d37a18           
#   hselx             integral             1     'b1                  
#   hburst            string               6     SINGLE               
#   hmastlock         integral             1     'h0                  
#   hprot             string               21    NORMAL_NONSECURE_DATA
#   hsize             string               8     HALFWORD             
#   hnonsec           integral             1     'h0                  
#   hexcl             integral             1     'h0                  
#   hmaster           integral             1     'd0                  
#   htrans            string               6     NONSEQ               
#   hwrite            string               5     WRITE                
#   hreadyout         integral             1     'h1                  
#   hresp             string               4     OKAY                 
#   hexokay           integral             1     'h0                  
#   hready            integral             1     'h0                  
#   choosePacketData  integral             1     'd0                  
#   hwdata[0]         integral             32    'hc800ac             
#   hwstrb[0]         integral             4     'b101                
# --------------------------------------------------------------------
# 
# UVM_INFO ../../src/hvlTop/slaveAgent/AhbSlaveCoverage.sv(61) @ 90: uvm_test_top.ahbEnvironment.ahbSlaveAgent[0].ahbSlaveCoverage [AhbSlaveCoverage] AHB SLAVE COVERAGE
# UVM_INFO ../../src/hvlTop/environment/AhbScoreboard.sv(78) @ 90: uvm_test_top.ahbEnvironment.ahbScoreboard [AhbScoreboard] after calling master's analysis fifo get method
# UVM_INFO ../../src/hvlTop/environment/AhbScoreboard.sv(88) @ 90: uvm_test_top.ahbEnvironment.ahbScoreboard [AhbScoreboard] after calling slave's analysis fifo get method
# UVM_INFO ../../src/hvlTop/environment/AhbScoreboard.sv(94) @ 90: uvm_test_top.ahbEnvironment.ahbScoreboard [AhbScoreboard] --
# -----------------------------------------------SCOREBOARD COMPARISIONS--------------------------------------------------
# UVM_INFO ../../src/hvlTop/environment/AhbScoreboard.sv(97) @ 90: uvm_test_top.ahbEnvironment.ahbScoreboard [AhbScoreboard] ahb HWDATA from master and slave is equal
# UVM_INFO ../../src/hvlTop/environment/AhbScoreboard.sv(99) @ 90: uvm_test_top.ahbEnvironment.ahbScoreboard [SB  HWDATA MATCHED] Master HWDATA = 13107372 and Slave HWDATA = 13107372
# UVM_INFO ../../src/hvlTop/environment/AhbScoreboard.sv(112) @ 90: uvm_test_top.ahbEnvironment.ahbScoreboard [AhbScoreboard] ahb HADDR from master and slave is equal
# UVM_INFO ../../src/hvlTop/environment/AhbScoreboard.sv(114) @ 90: uvm_test_top.ahbEnvironment.ahbScoreboard [SB HADDR MATCH] Master HADDR = 'hd5d37a18 and Slave HADDR = 'hd5d37a18
# UVM_INFO ../../src/hvlTop/environment/AhbScoreboard.sv(126) @ 90: uvm_test_top.ahbEnvironment.ahbScoreboard [AhbScoreboard] ahb HWRITE from master and slave is equal
# UVM_INFO ../../src/hvlTop/environment/AhbScoreboard.sv(128) @ 90: uvm_test_top.ahbEnvironment.ahbScoreboard [SB HWRITE MATCH] Master HWRITE = 'h1 and Slave hwrite = 'h1
# UVM_INFO ../../src/hvlTop/environment/AhbScoreboard.sv(166) @ 90: uvm_test_top.ahbEnvironment.ahbScoreboard [AhbScoreboard] --
# -----------------------------------------------END OF SCOREBOARD COMPARISIONS---------------------------------------
# ---------------------------------------------------------
# Name                Type                 Size  Value     
# ---------------------------------------------------------
# req                 AhbSlaveTransaction  -     @1226     
#   haddr             integral             32    'h0       
#   hselx             integral             1     'b0       
#   hburst            string               0     ""        
#   hmastlock         integral             1     'h0       
#   hprot             string               0     ""        
#   hsize             string               0     ""        
#   hnonsec           integral             1     'h0       
#   hexcl             integral             1     'h0       
#   hmaster           integral             1     'd0       
#   htrans            string               0     ""        
#   hwrite            string               4     READ      
#   hreadyout         integral             1     'h0       
#   hresp             string               0     ""        
#   hexokay           integral             1     'h0       
#   hready            integral             1     'h0       
#   choosePacketData  integral             1     'd0       
#   hwdata[0]         integral             32    'h8e4e6a93
#   hwdata[1]         integral             32    'h15d3b6d2
#   hwdata[2]         integral             32    'ha0ca03f4
#   hwdata[3]         integral             32    'ha505445 
#   hwdata[4]         integral             32    'h39faa1da
#   hwdata[5]         integral             32    'h765446da
#   hwdata[6]         integral             32    'h6916298a
#   hwdata[7]         integral             32    'hdf0bc8a5
#   hwdata[8]         integral             32    'h4a28c137
#   hwdata[9]         integral             32    'h5b287917
#   hwdata[10]        integral             32    'hf85ddeba
#   hwdata[11]        integral             32    'h239fc0f7
#   hwdata[12]        integral             32    'hf96bc764
#   hwdata[13]        integral             32    'h16917876
#   hwdata[14]        integral             32    'hf4560e7d
#   hwdata[15]        integral             32    'h8af17b50
#   hwstrb[0]         integral             4     'b1001    
#   hwstrb[1]         integral             4     'b1000    
#   hwstrb[2]         integral             4     'b1010    
#   hwstrb[3]         integral             4     'b100     
#   hwstrb[4]         integral             4     'b10      
#   hwstrb[5]         integral             4     'b101     
#   hwstrb[6]         integral             4     'b110     
#   hwstrb[7]         integral             4     'b1001    
#   hwstrb[8]         integral             4     'b1111    
#   hwstrb[9]         integral             4     'b1110    
#   hwstrb[10]        integral             4     'b1010    
#   hwstrb[11]        integral             4     'b1111    
#   hwstrb[12]        integral             4     'b1011    
#   hwstrb[13]        integral             4     'b111     
#   hwstrb[14]        integral             4     'b1010    
#   hwstrb[15]        integral             4     'b1       
#   hrdata[0]         integral             32    'hb4bb65c3
#   hrdata[1]         integral             32    'h1e2085e5
#   hrdata[2]         integral             32    'h77b3aa29
#   hrdata[3]         integral             32    'h36da4e3b
#   hrdata[4]         integral             32    'hdb1edc77
#   hrdata[5]         integral             32    'hc81e0bf3
#   hrdata[6]         integral             32    'ha572b943
#   hrdata[7]         integral             32    'h839a1e60
#   hrdata[8]         integral             32    'h1f99373f
#   hrdata[9]         integral             32    'h88bf20ac
#   hrdata[10]        integral             32    'ha7961168
#   hrdata[11]        integral             32    'h6b691628
#   hrdata[12]        integral             32    'h3ede96a5
#   hrdata[13]        integral             32    'h84bcbd47
#   hrdata[14]        integral             32    'ha9277e50
#   hrdata[15]        integral             32    'hc5988f0e
# ---------------------------------------------------------
# UVM_INFO ../../src/hvlTop/masterAgent/masterSequences/AhbMasterSequence.sv(125) @ 90: uvm_test_top.ahbEnvironment.ahbMasterAgent[0].ahbMasterSequencer@@ahbMasterSequence [AHB] req is of type: AhbMasterTransaction
# UVM_INFO ../../src/hvlTop/slaveAgent/AhbSlaveSequenceItemConverter.sv(65) @ 90: reporter [ahbSlaveSequeceItemconverterClass] After randomizing noofwaitstate = 00000000000000000000000000000000
# UVM_INFO ../../src/hvlTop/slaveAgent/AhbSlaveSequenceItemConverter.sv(95) @ 90: reporter [ahbSlaveSequeceItemconverterClass] -------------------------------------------------------------
# UVM_INFO ../../src/hdlTop/slaveAgentBFM/AhbSlaveDriverBFM.sv(52) @ 90: reporter [AHB_SLAVE_DRIVER_BFM] DRIVE TO BFM TASK
# UVM_INFO ../../src/hvlTop/masterAgent/AhbMasterDriverProxy.sv(58) @ 90: uvm_test_top.ahbEnvironment.ahbMasterAgent[0].ahbMasterDriverProxy [AhbMasterDriverProxy] REQ-MASTERTX 
#  ------------------------------------------------------------------------
# Name                      Type                  Size  Value             
# ------------------------------------------------------------------------
# req                       AhbMasterTransaction  -     @1230             
#   haddr                   integral              32    'hb0bdf8ac        
#   hselx                   integral              1     'b1               
#   hburst                  string                6     SINGLE            
#   hmastlock               integral              1     'h0               
#   hprot                   string                18    NORMAL_SECURE_DATA
#   hsize                   string                4     WORD              
#   hnonsec                 integral              1     'h1               
#   hexcl                   integral              1     'h0               
#   hmaster                 integral              1     1                 
#   htrans                  string                6     NONSEQ            
#   hwrite                  string                5     WRITE             
#   hreadyout               integral              1     'h0               
#   hresp                   string                0     ""                
#   hexokay                 integral              1     'h1               
#   hready                  integral              1     'h0               
#   noOfwaitStatesDetected  integral              32    'h0               
#   hwdata[0]               integral              32    'hd95bf673        
#   hwstrb[0]               integral              4     'b1111            
#   busyControl[0]          integral              1     'h0               
# ------------------------------------------------------------------------
# 
# UVM_INFO ../../src/hdlTop/masterAgentBFM/AhbMasterDriverBFM.sv(47) @ 90: reporter [AHB_MASTER_DRIVER_BFM] DRIVE TO BFM TASK
# UVM_INFO ../../src/hdlTop/masterAgentBFM/AhbMasterDriverBFM.sv(58) @ 90: reporter [INSIDESINGLETRANSFER] BFM
# ** Info: HRESP is OKAY for valid transactions!
#    Time: 90 ns Started: 70 ns  Scope: HdlTop.ahbSlaveAgentBFM.ahbSlaveMonitorBFM.ahb_assert File: ../../src/hdlTop/slaveAgentBFM/AhbSlaveAssertion.sv Line: 50
# ** Info: HREADYOUT is high during valid transactions!
#    Time: 90 ns Started: 70 ns  Scope: HdlTop.ahbSlaveAgentBFM.ahbSlaveMonitorBFM.ahb_assert File: ../../src/hdlTop/slaveAgentBFM/AhbSlaveAssertion.sv Line: 31
# ** Info: Hwstrb valid
#    Time: 90 ns Started: 90 ns  Scope: HdlTop.ahbMasterAgentBFM.ahbMasterMonitorBFM.ahb_assert File: ../../src/hdlTop/masterAgentBFM/AhbMasterAssertion.sv Line: 153
# ** Info: HWDATA is Valid When HWRITE IS HIGH
#    Time: 90 ns Started: 70 ns  Scope: HdlTop.ahbMasterAgentBFM.ahbMasterMonitorBFM.ahb_assert File: ../../src/hdlTop/masterAgentBFM/AhbMasterAssertion.sv Line: 38
# ** Info: Address stability during waited transfer verified.
#    Time: 90 ns Started: 70 ns  Scope: HdlTop.ahbMasterAgentBFM.ahbMasterMonitorBFM.ahb_assert File: ../../src/hdlTop/masterAgentBFM/AhbMasterAssertion.sv Line: 126
# ** Info: HMASTLOCK is asserted during a locked transfer
#    Time: 90 ns Started: 90 ns  Scope: HdlTop.ahbMasterAgentBFM.ahbMasterMonitorBFM.ahb_assert File: ../../src/hdlTop/masterAgentBFM/AhbMasterAssertion.sv Line: 77
# ** Info: HTRANS is Valid
#    Time: 90 ns Started: 70 ns  Scope: HdlTop.ahbMasterAgentBFM.ahbMasterMonitorBFM.ahb_assert File: ../../src/hdlTop/masterAgentBFM/AhbMasterAssertion.sv Line: 47
# ** Info: HSIZE matches the data width supported by the slave!
#    Time: 90 ns Started: 90 ns  Scope: HdlTop.ahbMasterAgentBFM.ahbMasterMonitorBFM.ahb_assert File: ../../src/hdlTop/masterAgentBFM/AhbMasterAssertion.sv Line: 135
# ** Info: Valid burst type!
#    Time: 90 ns Started: 90 ns  Scope: HdlTop.ahbMasterAgentBFM.ahbMasterMonitorBFM.ahb_assert File: ../../src/hdlTop/masterAgentBFM/AhbMasterAssertion.sv Line: 144
# ** Info: Transfer is single
#    Time: 90 ns Started: 70 ns  Scope: HdlTop.ahbMasterAgentBFM.ahbMasterMonitorBFM.ahb_cover File: ../../src/hdlTop/masterAgentBFM/AhbMasterCoverProperty.sv Line: 41
# ** Info: Valid Write Transfer
#    Time: 90 ns Started: 70 ns  Scope: HdlTop.ahbMasterAgentBFM.ahbMasterMonitorBFM.ahb_cover File: ../../src/hdlTop/masterAgentBFM/AhbMasterCoverProperty.sv Line: 49
# ** Info: Hresp is valid
#    Time: 90 ns Started: 70 ns  Scope: HdlTop.ahbSlaveAgentBFM.ahbSlaveMonitorBFM.ahb_cover File: ../../src/hdlTop/slaveAgentBFM/AhbSlaveCoverProperty.sv Line: 57
# ** Info: Hwstrb is valid
#    Time: 90 ns Started: 90 ns  Scope: HdlTop.ahbMasterAgentBFM.ahbMasterMonitorBFM.ahb_cover File: ../../src/hdlTop/masterAgentBFM/AhbMasterCoverProperty.sv Line: 98
# UVM_INFO ../../src/hdlTop/masterAgentBFM/AhbMasterDriverBFM.sv(61) @ 110: reporter [AHB_MASTER_DRIVER_BFM] DRIVING THE Single Transfer
# &&&&values inside master monitor proxy '{haddr:0, hselx:0, hburst:SINGLE, hmastlock:0, hprot:NORMAL_NONSECURE_DATA, hsize:HALFWORD, hnonsec:x, hexcl:x, hmaster:x, htrans:IDLE, hwdata:'{0, 0, 0, 0, 0, 0, 0, 0, 0, 0, 0, 0, 0, 0, 0, 0, 13107372}, hwstrb:'{0, 0, 0, 0, 0, 0, 0, 0, 0, 0, 0, 0, 0, 0, 0, 0, 5}, hwrite:READ, hrdata:'{0, 0, 0, 0, 0, 0, 0, 0, 0, 0, 0, 0, 0, 0, 0, 0, x}, hreadyout:x, hresp:OKAY, hexokay:x, hready:1, noOfWaitStates:0, busyControl:0}&&&
# UVM_INFO ../../src/hvlTop/masterAgent/AhbMasterMonitorProxy.sv(58) @ 110: uvm_test_top.ahbEnvironment.ahbMasterAgent[0].ahbMasterMonitorProxy [AhbMasterMonitorProxy] Sending packet via analysis_port: , 
#  ---------------------------------------------------------------------------
# Name                      Type                  Size  Value                
# ---------------------------------------------------------------------------
# ahbMasterPacket           AhbMasterTransaction  -     @1234                
#   haddr                   integral              32    'h0                  
#   hselx                   integral              1     'b0                  
#   hburst                  string                6     SINGLE               
#   hmastlock               integral              1     'h0                  
#   hprot                   string                21    NORMAL_NONSECURE_DATA
#   hsize                   string                8     HALFWORD             
#   hnonsec                 integral              1     'h0                  
#   hexcl                   integral              1     'h0                  
#   hmaster                 integral              1     'd0                  
#   htrans                  string                4     IDLE                 
#   hwrite                  string                4     READ                 
#   hreadyout               integral              1     'h0                  
#   hresp                   string                4     OKAY                 
#   hexokay                 integral              1     'h0                  
#   hready                  integral              1     'h1                  
#   noOfwaitStatesDetected  integral              32    'h0                  
#   hwdata[0]               integral              32    'hc800ac             
#   hwstrb[0]               integral              4     'b101                
# ---------------------------------------------------------------------------
# 
# UVM_INFO ../../src/hvlTop/masterAgent/AhbMasterCoverage.sv(181) @ 110: uvm_test_top.ahbEnvironment.ahbMasterAgent[0].ahbMasterCoverage [AhbMasterCoverage] Before calling SAMPLE METHOD
# UVM_INFO ../../src/hvlTop/masterAgent/AhbMasterCoverage.sv(183) @ 110: uvm_test_top.ahbEnvironment.ahbMasterAgent[0].ahbMasterCoverage [AhbMasterCoverage] After calling SAMPLE METHOD
# &&&&values inside monitor proxy '{haddr:0, hselx:0, hburst:SINGLE, hmastlock:x, hprot:NORMAL_NONSECURE_DATA, hsize:HALFWORD, hnonsec:0, hexcl:x, hmaster:x, htrans:IDLE, hwdata:'{0, 0, 0, 0, 0, 0, 0, 0, 0, 0, 0, 0, 0, 0, 0, 0, 13107372}, hwstrb:'{0, 0, 0, 0, 0, 0, 0, 0, 0, 0, 0, 0, 0, 0, 0, 0, 5}, hwrite:READ, hrdata:'{0, 0, 0, 0, 0, 0, 0, 0, 0, 0, 0, 0, 0, 0, 0, 0, x}, hreadyout:1, hresp:OKAY, hexokay:x, hready:x, noOfWaitStates:0, busyControl:0}&&&
# UVM_INFO ../../src/hvlTop/slaveAgent/AhbSlaveSequenceItemConverter.sv(149) @ 110: reporter [ahbSlaveSequeceItemconverterClass] After randomizing noofwaitstate = 00000000000000000000000000000000
# UVM_INFO ../../src/hvlTop/slaveAgent/AhbSlaveSequenceItemConverter.sv(177) @ 110: reporter [ahbSlaveSequeceItemconverterClass] -------------------------------------------------------------
# UVM_INFO ../../src/hvlTop/slaveAgent/AhbSlaveMonitorProxy.sv(57) @ 110: uvm_test_top.ahbEnvironment.ahbSlaveAgent[0].ahbSlaveMonitorProxy [AhbSlaveMonitorProxy] Sending packet via analysis_port: , 
#  --------------------------------------------------------------------
# Name                Type                 Size  Value                
# --------------------------------------------------------------------
# slave Packet        AhbSlaveTransaction  -     @1238                
#   haddr             integral             32    'h0                  
#   hselx             integral             1     'b0                  
#   hburst            string               6     SINGLE               
#   hmastlock         integral             1     'h0                  
#   hprot             string               21    NORMAL_NONSECURE_DATA
#   hsize             string               8     HALFWORD             
#   hnonsec           integral             1     'h0                  
#   hexcl             integral             1     'h0                  
#   hmaster           integral             1     'd0                  
#   htrans            string               4     IDLE                 
#   hwrite            string               4     READ                 
#   hreadyout         integral             1     'h1                  
#   hresp             string               4     OKAY                 
#   hexokay           integral             1     'h0                  
#   hready            integral             1     'h0                  
#   choosePacketData  integral             1     'd0                  
#   hwdata[0]         integral             32    'hc800ac             
#   hwstrb[0]         integral             4     'b101                
# --------------------------------------------------------------------
# 
# UVM_INFO ../../src/hvlTop/slaveAgent/AhbSlaveCoverage.sv(61) @ 110: uvm_test_top.ahbEnvironment.ahbSlaveAgent[0].ahbSlaveCoverage [AhbSlaveCoverage] AHB SLAVE COVERAGE
# UVM_INFO ../../src/hvlTop/environment/AhbScoreboard.sv(78) @ 110: uvm_test_top.ahbEnvironment.ahbScoreboard [AhbScoreboard] after calling master's analysis fifo get method
# UVM_INFO ../../src/hvlTop/environment/AhbScoreboard.sv(88) @ 110: uvm_test_top.ahbEnvironment.ahbScoreboard [AhbScoreboard] after calling slave's analysis fifo get method
# UVM_INFO ../../src/hdlTop/slaveAgentBFM/AhbSlaveDriverBFM.sv(60) @ 110: reporter [AHB_SLAVE_DRIVER_BFM] AFTERHSELASSERTED HTRANSFER = 2
# UVM_INFO ../../src/hdlTop/slaveAgentBFM/AhbSlaveDriverBFM.sv(71) @ 110: reporter [AHB_SLAVE_DRIVER_BFM] DRIVING THE Single Transfer
# ** Info: Valid Write Transfer
#    Time: 110 ns Started: 90 ns  Scope: HdlTop.ahbMasterAgentBFM.ahbMasterMonitorBFM.ahb_cover File: ../../src/hdlTop/masterAgentBFM/AhbMasterCoverProperty.sv Line: 49
# ** Info: Transfer is single
#    Time: 110 ns Started: 90 ns  Scope: HdlTop.ahbMasterAgentBFM.ahbMasterMonitorBFM.ahb_cover File: ../../src/hdlTop/masterAgentBFM/AhbMasterCoverProperty.sv Line: 41
# ** Info: HTRANS is Valid
#    Time: 110 ns Started: 90 ns  Scope: HdlTop.ahbMasterAgentBFM.ahbMasterMonitorBFM.ahb_assert File: ../../src/hdlTop/masterAgentBFM/AhbMasterAssertion.sv Line: 47
# ** Info: Address stability during waited transfer verified.
#    Time: 110 ns Started: 90 ns  Scope: HdlTop.ahbMasterAgentBFM.ahbMasterMonitorBFM.ahb_assert File: ../../src/hdlTop/masterAgentBFM/AhbMasterAssertion.sv Line: 126
# ** Info: HWDATA is Valid When HWRITE IS HIGH
#    Time: 110 ns Started: 90 ns  Scope: HdlTop.ahbMasterAgentBFM.ahbMasterMonitorBFM.ahb_assert File: ../../src/hdlTop/masterAgentBFM/AhbMasterAssertion.sv Line: 38
# ** Info: HREADYOUT is high during valid transactions!
#    Time: 110 ns Started: 90 ns  Scope: HdlTop.ahbSlaveAgentBFM.ahbSlaveMonitorBFM.ahb_assert File: ../../src/hdlTop/slaveAgentBFM/AhbSlaveAssertion.sv Line: 31
# ** Info: HRESP is OKAY for valid transactions!
#    Time: 110 ns Started: 90 ns  Scope: HdlTop.ahbSlaveAgentBFM.ahbSlaveMonitorBFM.ahb_assert File: ../../src/hdlTop/slaveAgentBFM/AhbSlaveAssertion.sv Line: 50
# ** Info: Trans going from non seq to idle in single burst
#    Time: 110 ns Started: 90 ns  Scope: HdlTop.ahbMasterAgentBFM.ahbMasterMonitorBFM.ahb_cover File: ../../src/hdlTop/masterAgentBFM/AhbMasterCoverProperty.sv Line: 66
# ** Info: Hresp is valid
#    Time: 110 ns Started: 90 ns  Scope: HdlTop.ahbSlaveAgentBFM.ahbSlaveMonitorBFM.ahb_cover File: ../../src/hdlTop/slaveAgentBFM/AhbSlaveCoverProperty.sv Line: 57
# UVM_INFO ../../src/hdlTop/masterAgentBFM/AhbMasterDriverBFM.sv(86) @ 130: reporter [AHB_MASTER_DRIVER_BFM] Write Data: 0 to Address: b0bdf8ac
# UVM_INFO ../../src/hdlTop/masterAgentBFM/AhbMasterDriverBFM.sv(87) @ 130: reporter [AHB_MASTER_DRIVER_BFM] Write Data: 0 to Address: b0bdf8ac
# &&&&values inside master monitor proxy '{haddr:2965239980, hselx:1, hburst:SINGLE, hmastlock:0, hprot:NORMAL_SECURE_DATA, hsize:WORD, hnonsec:x, hexcl:x, hmaster:x, htrans:NONSEQ, hwdata:'{0, 0, 0, 0, 0, 0, 0, 0, 0, 0, 0, 0, 0, 0, 0, 0, 0}, hwstrb:'{0, 0, 0, 0, 0, 0, 0, 0, 0, 0, 0, 0, 0, 0, 0, 0, 15}, hwrite:WRITE, hrdata:'{0, 0, 0, 0, 0, 0, 0, 0, 0, 0, 0, 0, 0, 0, 0, 0, x}, hreadyout:x, hresp:OKAY, hexokay:x, hready:1, noOfWaitStates:0, busyControl:0}&&&
# UVM_INFO ../../src/hvlTop/masterAgent/AhbMasterMonitorProxy.sv(58) @ 130: uvm_test_top.ahbEnvironment.ahbMasterAgent[0].ahbMasterMonitorProxy [AhbMasterMonitorProxy] Sending packet via analysis_port: , 
#  ------------------------------------------------------------------------
# Name                      Type                  Size  Value             
# ------------------------------------------------------------------------
# ahbMasterPacket           AhbMasterTransaction  -     @1242             
#   haddr                   integral              32    'hb0bdf8ac        
#   hselx                   integral              1     'b1               
#   hburst                  string                6     SINGLE            
#   hmastlock               integral              1     'h0               
#   hprot                   string                18    NORMAL_SECURE_DATA
#   hsize                   string                4     WORD              
#   hnonsec                 integral              1     'h0               
#   hexcl                   integral              1     'h0               
#   hmaster                 integral              1     'd0               
#   htrans                  string                6     NONSEQ            
#   hwrite                  string                5     WRITE             
#   hreadyout               integral              1     'h0               
#   hresp                   string                4     OKAY              
#   hexokay                 integral              1     'h0               
#   hready                  integral              1     'h1               
#   noOfwaitStatesDetected  integral              32    'h0               
#   hwdata[0]               integral              32    'hc800ac          
#   hwstrb[0]               integral              4     'b101             
# ------------------------------------------------------------------------
# 
# UVM_INFO ../../src/hvlTop/masterAgent/AhbMasterCoverage.sv(181) @ 130: uvm_test_top.ahbEnvironment.ahbMasterAgent[0].ahbMasterCoverage [AhbMasterCoverage] Before calling SAMPLE METHOD
# UVM_INFO ../../src/hvlTop/masterAgent/AhbMasterCoverage.sv(183) @ 130: uvm_test_top.ahbEnvironment.ahbMasterAgent[0].ahbMasterCoverage [AhbMasterCoverage] After calling SAMPLE METHOD
# UVM_INFO ../../src/hdlTop/slaveAgentBFM/AhbSlaveDriverBFM.sv(171) @ 130: reporter [AHB_SLAVE_DRIVER_BFM] Bus is now out of wait cycles
# UVM_INFO ../../src/hvlTop/slaveAgent/AhbSlaveSequenceItemConverter.sv(149) @ 130: reporter [ahbSlaveSequeceItemconverterClass] After randomizing noofwaitstate = 00000000000000000000000000000000
# UVM_INFO ../../src/hvlTop/slaveAgent/AhbSlaveSequenceItemConverter.sv(177) @ 130: reporter [ahbSlaveSequeceItemconverterClass] -------------------------------------------------------------
# &&&&values inside monitor proxy '{haddr:2965239980, hselx:1, hburst:SINGLE, hmastlock:x, hprot:NORMAL_SECURE_DATA, hsize:WORD, hnonsec:1, hexcl:x, hmaster:x, htrans:NONSEQ, hwdata:'{0, 0, 0, 0, 0, 0, 0, 0, 0, 0, 0, 0, 0, 0, 0, 0, 0}, hwstrb:'{0, 0, 0, 0, 0, 0, 0, 0, 0, 0, 0, 0, 0, 0, 0, 0, 15}, hwrite:WRITE, hrdata:'{0, 0, 0, 0, 0, 0, 0, 0, 0, 0, 0, 0, 0, 0, 0, 0, x}, hreadyout:1, hresp:OKAY, hexokay:x, hready:x, noOfWaitStates:0, busyControl:0}&&&
# UVM_INFO ../../src/hvlTop/slaveAgent/AhbSlaveSequenceItemConverter.sv(149) @ 130: reporter [ahbSlaveSequeceItemconverterClass] After randomizing noofwaitstate = 00000000000000000000000000000000
# UVM_INFO ../../src/hvlTop/slaveAgent/AhbSlaveSequenceItemConverter.sv(177) @ 130: reporter [ahbSlaveSequeceItemconverterClass] -------------------------------------------------------------
# UVM_INFO ../../src/hvlTop/slaveAgent/AhbSlaveMonitorProxy.sv(57) @ 130: uvm_test_top.ahbEnvironment.ahbSlaveAgent[0].ahbSlaveMonitorProxy [AhbSlaveMonitorProxy] Sending packet via analysis_port: , 
#  -----------------------------------------------------------------
# Name                Type                 Size  Value             
# -----------------------------------------------------------------
# slave Packet        AhbSlaveTransaction  -     @1246             
#   haddr             integral             32    'hb0bdf8ac        
#   hselx             integral             1     'b1               
#   hburst            string               6     SINGLE            
#   hmastlock         integral             1     'h0               
#   hprot             string               18    NORMAL_SECURE_DATA
#   hsize             string               4     WORD              
#   hnonsec           integral             1     'h1               
#   hexcl             integral             1     'h0               
#   hmaster           integral             1     'd0               
#   htrans            string               6     NONSEQ            
#   hwrite            string               5     WRITE             
#   hreadyout         integral             1     'h1               
#   hresp             string               4     OKAY              
#   hexokay           integral             1     'h0               
#   hready            integral             1     'h0               
#   choosePacketData  integral             1     'd0               
#   hwdata[0]         integral             32    'hc800ac          
#   hwstrb[0]         integral             4     'b101             
# -----------------------------------------------------------------
# 
# UVM_INFO ../../src/hvlTop/slaveAgent/AhbSlaveCoverage.sv(61) @ 130: uvm_test_top.ahbEnvironment.ahbSlaveAgent[0].ahbSlaveCoverage [AhbSlaveCoverage] AHB SLAVE COVERAGE
# UVM_INFO ../../src/hvlTop/environment/AhbScoreboard.sv(78) @ 130: uvm_test_top.ahbEnvironment.ahbScoreboard [AhbScoreboard] after calling master's analysis fifo get method
# UVM_INFO ../../src/hvlTop/environment/AhbScoreboard.sv(88) @ 130: uvm_test_top.ahbEnvironment.ahbScoreboard [AhbScoreboard] after calling slave's analysis fifo get method
# UVM_INFO ../../src/hvlTop/environment/AhbScoreboard.sv(94) @ 130: uvm_test_top.ahbEnvironment.ahbScoreboard [AhbScoreboard] --
# -----------------------------------------------SCOREBOARD COMPARISIONS--------------------------------------------------
# UVM_INFO ../../src/hvlTop/environment/AhbScoreboard.sv(97) @ 130: uvm_test_top.ahbEnvironment.ahbScoreboard [AhbScoreboard] ahb HWDATA from master and slave is equal
# UVM_INFO ../../src/hvlTop/environment/AhbScoreboard.sv(99) @ 130: uvm_test_top.ahbEnvironment.ahbScoreboard [SB  HWDATA MATCHED] Master HWDATA = 13107372 and Slave HWDATA = 13107372
# UVM_INFO ../../src/hvlTop/environment/AhbScoreboard.sv(112) @ 130: uvm_test_top.ahbEnvironment.ahbScoreboard [AhbScoreboard] ahb HADDR from master and slave is equal
# UVM_INFO ../../src/hvlTop/environment/AhbScoreboard.sv(114) @ 130: uvm_test_top.ahbEnvironment.ahbScoreboard [SB HADDR MATCH] Master HADDR = 'hb0bdf8ac and Slave HADDR = 'hb0bdf8ac
# UVM_INFO ../../src/hvlTop/environment/AhbScoreboard.sv(126) @ 130: uvm_test_top.ahbEnvironment.ahbScoreboard [AhbScoreboard] ahb HWRITE from master and slave is equal
# UVM_INFO ../../src/hvlTop/environment/AhbScoreboard.sv(128) @ 130: uvm_test_top.ahbEnvironment.ahbScoreboard [SB HWRITE MATCH] Master HWRITE = 'h1 and Slave hwrite = 'h1
# UVM_INFO ../../src/hvlTop/environment/AhbScoreboard.sv(166) @ 130: uvm_test_top.ahbEnvironment.ahbScoreboard [AhbScoreboard] --
# -----------------------------------------------END OF SCOREBOARD COMPARISIONS---------------------------------------
# ** Info: Hwstrb is valid
#    Time: 130 ns Started: 130 ns  Scope: HdlTop.ahbMasterAgentBFM.ahbMasterMonitorBFM.ahb_cover File: ../../src/hdlTop/masterAgentBFM/AhbMasterCoverProperty.sv Line: 98
# ** Info: HSIZE matches the data width supported by the slave!
#    Time: 130 ns Started: 130 ns  Scope: HdlTop.ahbMasterAgentBFM.ahbMasterMonitorBFM.ahb_assert File: ../../src/hdlTop/masterAgentBFM/AhbMasterAssertion.sv Line: 135
# ** Info: Valid burst type!
#    Time: 130 ns Started: 130 ns  Scope: HdlTop.ahbMasterAgentBFM.ahbMasterMonitorBFM.ahb_assert File: ../../src/hdlTop/masterAgentBFM/AhbMasterAssertion.sv Line: 144
# ** Info: Hwstrb valid
#    Time: 130 ns Started: 130 ns  Scope: HdlTop.ahbMasterAgentBFM.ahbMasterMonitorBFM.ahb_assert File: ../../src/hdlTop/masterAgentBFM/AhbMasterAssertion.sv Line: 153
# ** Info: Hresp is valid
#    Time: 130 ns Started: 110 ns  Scope: HdlTop.ahbSlaveAgentBFM.ahbSlaveMonitorBFM.ahb_cover File: ../../src/hdlTop/slaveAgentBFM/AhbSlaveCoverProperty.sv Line: 57
# ** Info: Transition from IDLE to NON-SEQ passed
#    Time: 130 ns Started: 110 ns  Scope: HdlTop.ahbMasterAgentBFM.ahbMasterMonitorBFM.ahb_assert File: ../../src/hdlTop/masterAgentBFM/AhbMasterAssertion.sv Line: 117
# UVM_INFO ../../src/hdlTop/masterAgentBFM/AhbMasterDriverBFM.sv(192) @ 150: reporter [AHB_MASTER_DRIVER_BFM] Bus is now IDLE
# &&&&values inside master monitor proxy '{haddr:2965239980, hselx:1, hburst:SINGLE, hmastlock:0, hprot:NORMAL_SECURE_DATA, hsize:WORD, hnonsec:x, hexcl:x, hmaster:x, htrans:NONSEQ, hwdata:'{0, 0, 0, 0, 0, 0, 0, 0, 0, 0, 0, 0, 0, 0, 0, 0, 3646682739}, hwstrb:'{0, 0, 0, 0, 0, 0, 0, 0, 0, 0, 0, 0, 0, 0, 0, 0, 15}, hwrite:WRITE, hrdata:'{0, 0, 0, 0, 0, 0, 0, 0, 0, 0, 0, 0, 0, 0, 0, 0, x}, hreadyout:x, hresp:OKAY, hexokay:x, hready:1, noOfWaitStates:0, busyControl:0}&&&
# UVM_INFO ../../src/hvlTop/masterAgent/AhbMasterMonitorProxy.sv(58) @ 150: uvm_test_top.ahbEnvironment.ahbMasterAgent[0].ahbMasterMonitorProxy [AhbMasterMonitorProxy] Sending packet via analysis_port: , 
#  ------------------------------------------------------------------------
# Name                      Type                  Size  Value             
# ------------------------------------------------------------------------
# ahbMasterPacket           AhbMasterTransaction  -     @1250             
#   haddr                   integral              32    'hb0bdf8ac        
#   hselx                   integral              1     'b1               
#   hburst                  string                6     SINGLE            
#   hmastlock               integral              1     'h0               
#   hprot                   string                18    NORMAL_SECURE_DATA
#   hsize                   string                4     WORD              
#   hnonsec                 integral              1     'h0               
#   hexcl                   integral              1     'h0               
#   hmaster                 integral              1     'd0               
#   htrans                  string                6     NONSEQ            
#   hwrite                  string                5     WRITE             
#   hreadyout               integral              1     'h0               
#   hresp                   string                4     OKAY              
#   hexokay                 integral              1     'h0               
#   hready                  integral              1     'h1               
#   noOfwaitStatesDetected  integral              32    'h0               
#   hwdata[0]               integral              32    'hd95bf673        
#   hwstrb[0]               integral              4     'b1111            
# ------------------------------------------------------------------------
# 
# UVM_INFO ../../src/hvlTop/masterAgent/AhbMasterCoverage.sv(181) @ 150: uvm_test_top.ahbEnvironment.ahbMasterAgent[0].ahbMasterCoverage [AhbMasterCoverage] Before calling SAMPLE METHOD
# UVM_INFO ../../src/hvlTop/masterAgent/AhbMasterCoverage.sv(183) @ 150: uvm_test_top.ahbEnvironment.ahbMasterAgent[0].ahbMasterCoverage [AhbMasterCoverage] After calling SAMPLE METHOD
# &&&&values inside monitor proxy '{haddr:2965239980, hselx:1, hburst:SINGLE, hmastlock:x, hprot:NORMAL_SECURE_DATA, hsize:WORD, hnonsec:1, hexcl:x, hmaster:x, htrans:NONSEQ, hwdata:'{0, 0, 0, 0, 0, 0, 0, 0, 0, 0, 0, 0, 0, 0, 0, 0, 3646682739}, hwstrb:'{0, 0, 0, 0, 0, 0, 0, 0, 0, 0, 0, 0, 0, 0, 0, 0, 15}, hwrite:WRITE, hrdata:'{0, 0, 0, 0, 0, 0, 0, 0, 0, 0, 0, 0, 0, 0, 0, 0, x}, hreadyout:1, hresp:OKAY, hexokay:x, hready:x, noOfWaitStates:0, busyControl:0}&&&
# UVM_INFO ../../src/hvlTop/slaveAgent/AhbSlaveSequenceItemConverter.sv(149) @ 150: reporter [ahbSlaveSequeceItemconverterClass] After randomizing noofwaitstate = 00000000000000000000000000000000
# UVM_INFO ../../src/hvlTop/slaveAgent/AhbSlaveSequenceItemConverter.sv(177) @ 150: reporter [ahbSlaveSequeceItemconverterClass] -------------------------------------------------------------
# UVM_INFO ../../src/hvlTop/slaveAgent/AhbSlaveMonitorProxy.sv(57) @ 150: uvm_test_top.ahbEnvironment.ahbSlaveAgent[0].ahbSlaveMonitorProxy [AhbSlaveMonitorProxy] Sending packet via analysis_port: , 
#  -----------------------------------------------------------------
# Name                Type                 Size  Value             
# -----------------------------------------------------------------
# slave Packet        AhbSlaveTransaction  -     @1254             
#   haddr             integral             32    'hb0bdf8ac        
#   hselx             integral             1     'b1               
#   hburst            string               6     SINGLE            
#   hmastlock         integral             1     'h0               
#   hprot             string               18    NORMAL_SECURE_DATA
#   hsize             string               4     WORD              
#   hnonsec           integral             1     'h1               
#   hexcl             integral             1     'h0               
#   hmaster           integral             1     'd0               
#   htrans            string               6     NONSEQ            
#   hwrite            string               5     WRITE             
#   hreadyout         integral             1     'h1               
#   hresp             string               4     OKAY              
#   hexokay           integral             1     'h0               
#   hready            integral             1     'h0               
#   choosePacketData  integral             1     'd0               
#   hwdata[0]         integral             32    'hd95bf673        
#   hwstrb[0]         integral             4     'b1111            
# -----------------------------------------------------------------
# 
# UVM_INFO ../../src/hvlTop/slaveAgent/AhbSlaveCoverage.sv(61) @ 150: uvm_test_top.ahbEnvironment.ahbSlaveAgent[0].ahbSlaveCoverage [AhbSlaveCoverage] AHB SLAVE COVERAGE
# UVM_INFO ../../src/hvlTop/environment/AhbScoreboard.sv(78) @ 150: uvm_test_top.ahbEnvironment.ahbScoreboard [AhbScoreboard] after calling master's analysis fifo get method
# UVM_INFO ../../src/hvlTop/environment/AhbScoreboard.sv(88) @ 150: uvm_test_top.ahbEnvironment.ahbScoreboard [AhbScoreboard] after calling slave's analysis fifo get method
# UVM_INFO ../../src/hvlTop/environment/AhbScoreboard.sv(94) @ 150: uvm_test_top.ahbEnvironment.ahbScoreboard [AhbScoreboard] --
# -----------------------------------------------SCOREBOARD COMPARISIONS--------------------------------------------------
# UVM_INFO ../../src/hvlTop/environment/AhbScoreboard.sv(97) @ 150: uvm_test_top.ahbEnvironment.ahbScoreboard [AhbScoreboard] ahb HWDATA from master and slave is equal
# UVM_INFO ../../src/hvlTop/environment/AhbScoreboard.sv(99) @ 150: uvm_test_top.ahbEnvironment.ahbScoreboard [SB  HWDATA MATCHED] Master HWDATA = 3646682739 and Slave HWDATA = 3646682739
# UVM_INFO ../../src/hvlTop/environment/AhbScoreboard.sv(112) @ 150: uvm_test_top.ahbEnvironment.ahbScoreboard [AhbScoreboard] ahb HADDR from master and slave is equal
# UVM_INFO ../../src/hvlTop/environment/AhbScoreboard.sv(114) @ 150: uvm_test_top.ahbEnvironment.ahbScoreboard [SB HADDR MATCH] Master HADDR = 'hb0bdf8ac and Slave HADDR = 'hb0bdf8ac
# UVM_INFO ../../src/hvlTop/environment/AhbScoreboard.sv(126) @ 150: uvm_test_top.ahbEnvironment.ahbScoreboard [AhbScoreboard] ahb HWRITE from master and slave is equal
# UVM_INFO ../../src/hvlTop/environment/AhbScoreboard.sv(128) @ 150: uvm_test_top.ahbEnvironment.ahbScoreboard [SB HWRITE MATCH] Master HWRITE = 'h1 and Slave hwrite = 'h1
# UVM_INFO ../../src/hvlTop/environment/AhbScoreboard.sv(166) @ 150: uvm_test_top.ahbEnvironment.ahbScoreboard [AhbScoreboard] --
# -----------------------------------------------END OF SCOREBOARD COMPARISIONS---------------------------------------
# ---------------------------------------------------------
# Name                Type                 Size  Value     
# ---------------------------------------------------------
# req                 AhbSlaveTransaction  -     @1258     
#   haddr             integral             32    'h0       
#   hselx             integral             1     'b0       
#   hburst            string               0     ""        
#   hmastlock         integral             1     'h0       
#   hprot             string               0     ""        
#   hsize             string               0     ""        
#   hnonsec           integral             1     'h0       
#   hexcl             integral             1     'h0       
#   hmaster           integral             1     'd0       
#   htrans            string               0     ""        
#   hwrite            string               4     READ      
#   hreadyout         integral             1     'h0       
#   hresp             string               0     ""        
#   hexokay           integral             1     'h0       
#   hready            integral             1     'h0       
#   choosePacketData  integral             1     'd0       
#   hwdata[0]         integral             32    'hf8de7f3a
#   hwdata[1]         integral             32    'hfa6b96f1
#   hwdata[2]         integral             32    'h7230462f
#   hwdata[3]         integral             32    'h654b6467
#   hwdata[4]         integral             32    'hf125967f
#   hwdata[5]         integral             32    'hdac6d558
#   hwdata[6]         integral             32    'h758b8448
#   hwdata[7]         integral             32    'hfe34c8b2
#   hwdata[8]         integral             32    'h9b3d757f
#   hwdata[9]         integral             32    'hc1913df1
#   hwdata[10]        integral             32    'hf5e900b6
#   hwdata[11]        integral             32    'h8cf54ee4
#   hwdata[12]        integral             32    'h6451cefb
#   hwdata[13]        integral             32    'h72af36d1
#   hwdata[14]        integral             32    'haf0c4711
#   hwdata[15]        integral             32    'h82acaccc
#   hwstrb[0]         integral             4     'b1100    
#   hwstrb[1]         integral             4     'b1       
#   hwstrb[2]         integral             4     'b1000    
#   hwstrb[3]         integral             4     'b1000    
#   hwstrb[4]         integral             4     'b111     
#   hwstrb[5]         integral             4     'b1001    
#   hwstrb[6]         integral             4     'b1001    
#   hwstrb[7]         integral             4     'b11      
#   hwstrb[8]         integral             4     'b1101    
#   hwstrb[9]         integral             4     'b1010    
#   hwstrb[10]        integral             4     'b10      
#   hwstrb[11]        integral             4     'b1101    
#   hwstrb[12]        integral             4     'b1101    
#   hwstrb[13]        integral             4     'b1       
#   hwstrb[14]        integral             4     'b1010    
#   hwstrb[15]        integral             4     'b1011    
#   hrdata[0]         integral             32    'h17f0db1b
#   hrdata[1]         integral             32    'h407fbdbb
#   hrdata[2]         integral             32    'hb7f44957
#   hrdata[3]         integral             32    'hcf6ae331
#   hrdata[4]         integral             32    'h83f1f2b1
#   hrdata[5]         integral             32    'h9864c937
#   hrdata[6]         integral             32    'heaaa1863
#   hrdata[7]         integral             32    'h400e0058
#   hrdata[8]         integral             32    'h239a146 
#   hrdata[9]         integral             32    'h3288ee7d
#   hrdata[10]        integral             32    'ha0e70164
#   hrdata[11]        integral             32    'h741aeacc
#   hrdata[12]        integral             32    'ha95657a5
#   hrdata[13]        integral             32    'hf77312ee
#   hrdata[14]        integral             32    'hee334e8b
#   hrdata[15]        integral             32    'h6410ac5c
# ---------------------------------------------------------
# UVM_INFO ../../src/hvlTop/masterAgent/masterSequences/AhbMasterSequence.sv(125) @ 150: uvm_test_top.ahbEnvironment.ahbMasterAgent[0].ahbMasterSequencer@@ahbMasterSequence [AHB] req is of type: AhbMasterTransaction
# UVM_INFO ../../src/hvlTop/slaveAgent/AhbSlaveSequenceItemConverter.sv(65) @ 150: reporter [ahbSlaveSequeceItemconverterClass] After randomizing noofwaitstate = 00000000000000000000000000000000
# UVM_INFO ../../src/hvlTop/slaveAgent/AhbSlaveSequenceItemConverter.sv(95) @ 150: reporter [ahbSlaveSequeceItemconverterClass] -------------------------------------------------------------
# UVM_INFO ../../src/hdlTop/slaveAgentBFM/AhbSlaveDriverBFM.sv(52) @ 150: reporter [AHB_SLAVE_DRIVER_BFM] DRIVE TO BFM TASK
# UVM_INFO ../../src/hvlTop/masterAgent/AhbMasterDriverProxy.sv(58) @ 150: uvm_test_top.ahbEnvironment.ahbMasterAgent[0].ahbMasterDriverProxy [AhbMasterDriverProxy] REQ-MASTERTX 
#  -------------------------------------------------------------------------------
# Name                      Type                  Size  Value                    
# -------------------------------------------------------------------------------
# req                       AhbMasterTransaction  -     @1262                    
#   haddr                   integral              32    'hf9967e6f               
#   hselx                   integral              1     'b1                      
#   hburst                  string                6     SINGLE                   
#   hmastlock               integral              1     'h0                      
#   hprot                   string                25    PRIVILEGED_NONSECURE_DATA
#   hsize                   string                4     BYTE                     
#   hnonsec                 integral              1     'h0                      
#   hexcl                   integral              1     'h1                      
#   hmaster                 integral              1     1                        
#   htrans                  string                6     NONSEQ                   
#   hwrite                  string                5     WRITE                    
#   hreadyout               integral              1     'h0                      
#   hresp                   string                0     ""                       
#   hexokay                 integral              1     'h1                      
#   hready                  integral              1     'h0                      
#   noOfwaitStatesDetected  integral              32    'h0                      
#   hwdata[0]               integral              32    'h8365c83e               
#   hwstrb[0]               integral              4     'b1                      
#   busyControl[0]          integral              1     'h0                      
# -------------------------------------------------------------------------------
# 
# UVM_INFO ../../src/hdlTop/masterAgentBFM/AhbMasterDriverBFM.sv(47) @ 150: reporter [AHB_MASTER_DRIVER_BFM] DRIVE TO BFM TASK
# UVM_INFO ../../src/hdlTop/masterAgentBFM/AhbMasterDriverBFM.sv(58) @ 150: reporter [INSIDESINGLETRANSFER] BFM
# ** Info: HWDATA is Valid When HWRITE IS HIGH
#    Time: 150 ns Started: 130 ns  Scope: HdlTop.ahbMasterAgentBFM.ahbMasterMonitorBFM.ahb_assert File: ../../src/hdlTop/masterAgentBFM/AhbMasterAssertion.sv Line: 38
# ** Info: Hwstrb is valid
#    Time: 150 ns Started: 150 ns  Scope: HdlTop.ahbMasterAgentBFM.ahbMasterMonitorBFM.ahb_cover File: ../../src/hdlTop/masterAgentBFM/AhbMasterCoverProperty.sv Line: 98
# ** Info: Address stability during waited transfer verified.
#    Time: 150 ns Started: 130 ns  Scope: HdlTop.ahbMasterAgentBFM.ahbMasterMonitorBFM.ahb_assert File: ../../src/hdlTop/masterAgentBFM/AhbMasterAssertion.sv Line: 126
# ** Info: HSIZE matches the data width supported by the slave!
#    Time: 150 ns Started: 150 ns  Scope: HdlTop.ahbMasterAgentBFM.ahbMasterMonitorBFM.ahb_assert File: ../../src/hdlTop/masterAgentBFM/AhbMasterAssertion.sv Line: 135
# ** Info: Valid burst type!
#    Time: 150 ns Started: 150 ns  Scope: HdlTop.ahbMasterAgentBFM.ahbMasterMonitorBFM.ahb_assert File: ../../src/hdlTop/masterAgentBFM/AhbMasterAssertion.sv Line: 144
# ** Info: Hwstrb valid
#    Time: 150 ns Started: 150 ns  Scope: HdlTop.ahbMasterAgentBFM.ahbMasterMonitorBFM.ahb_assert File: ../../src/hdlTop/masterAgentBFM/AhbMasterAssertion.sv Line: 153
# ** Info: HREADYOUT is high during valid transactions!
#    Time: 150 ns Started: 130 ns  Scope: HdlTop.ahbSlaveAgentBFM.ahbSlaveMonitorBFM.ahb_assert File: ../../src/hdlTop/slaveAgentBFM/AhbSlaveAssertion.sv Line: 31
# ** Info: HRESP is OKAY for valid transactions!
#    Time: 150 ns Started: 130 ns  Scope: HdlTop.ahbSlaveAgentBFM.ahbSlaveMonitorBFM.ahb_assert File: ../../src/hdlTop/slaveAgentBFM/AhbSlaveAssertion.sv Line: 50
# ** Info: Valid Write Transfer
#    Time: 150 ns Started: 130 ns  Scope: HdlTop.ahbMasterAgentBFM.ahbMasterMonitorBFM.ahb_cover File: ../../src/hdlTop/masterAgentBFM/AhbMasterCoverProperty.sv Line: 49
# ** Info: HTRANS is Valid
#    Time: 150 ns Started: 130 ns  Scope: HdlTop.ahbMasterAgentBFM.ahbMasterMonitorBFM.ahb_assert File: ../../src/hdlTop/masterAgentBFM/AhbMasterAssertion.sv Line: 47
# ** Info: Hresp is valid
#    Time: 150 ns Started: 130 ns  Scope: HdlTop.ahbSlaveAgentBFM.ahbSlaveMonitorBFM.ahb_cover File: ../../src/hdlTop/slaveAgentBFM/AhbSlaveCoverProperty.sv Line: 57
# ** Info: Transfer is single
#    Time: 150 ns Started: 130 ns  Scope: HdlTop.ahbMasterAgentBFM.ahbMasterMonitorBFM.ahb_cover File: ../../src/hdlTop/masterAgentBFM/AhbMasterCoverProperty.sv Line: 41
# UVM_INFO ../../src/hdlTop/masterAgentBFM/AhbMasterDriverBFM.sv(61) @ 170: reporter [AHB_MASTER_DRIVER_BFM] DRIVING THE Single Transfer
# &&&&values inside master monitor proxy '{haddr:0, hselx:0, hburst:SINGLE, hmastlock:0, hprot:NORMAL_SECURE_DATA, hsize:WORD, hnonsec:x, hexcl:x, hmaster:x, htrans:IDLE, hwdata:'{0, 0, 0, 0, 0, 0, 0, 0, 0, 0, 0, 0, 0, 0, 0, 0, 3646682739}, hwstrb:'{0, 0, 0, 0, 0, 0, 0, 0, 0, 0, 0, 0, 0, 0, 0, 0, 15}, hwrite:READ, hrdata:'{0, 0, 0, 0, 0, 0, 0, 0, 0, 0, 0, 0, 0, 0, 0, 0, x}, hreadyout:x, hresp:OKAY, hexokay:x, hready:1, noOfWaitStates:0, busyControl:0}&&&
# UVM_INFO ../../src/hvlTop/masterAgent/AhbMasterMonitorProxy.sv(58) @ 170: uvm_test_top.ahbEnvironment.ahbMasterAgent[0].ahbMasterMonitorProxy [AhbMasterMonitorProxy] Sending packet via analysis_port: , 
#  ------------------------------------------------------------------------
# Name                      Type                  Size  Value             
# ------------------------------------------------------------------------
# ahbMasterPacket           AhbMasterTransaction  -     @1266             
#   haddr                   integral              32    'h0               
#   hselx                   integral              1     'b0               
#   hburst                  string                6     SINGLE            
#   hmastlock               integral              1     'h0               
#   hprot                   string                18    NORMAL_SECURE_DATA
#   hsize                   string                4     WORD              
#   hnonsec                 integral              1     'h0               
#   hexcl                   integral              1     'h0               
#   hmaster                 integral              1     'd0               
#   htrans                  string                4     IDLE              
#   hwrite                  string                4     READ              
#   hreadyout               integral              1     'h0               
#   hresp                   string                4     OKAY              
#   hexokay                 integral              1     'h0               
#   hready                  integral              1     'h1               
#   noOfwaitStatesDetected  integral              32    'h0               
#   hwdata[0]               integral              32    'hd95bf673        
#   hwstrb[0]               integral              4     'b1111            
# ------------------------------------------------------------------------
# 
# UVM_INFO ../../src/hvlTop/masterAgent/AhbMasterCoverage.sv(181) @ 170: uvm_test_top.ahbEnvironment.ahbMasterAgent[0].ahbMasterCoverage [AhbMasterCoverage] Before calling SAMPLE METHOD
# UVM_INFO ../../src/hvlTop/masterAgent/AhbMasterCoverage.sv(183) @ 170: uvm_test_top.ahbEnvironment.ahbMasterAgent[0].ahbMasterCoverage [AhbMasterCoverage] After calling SAMPLE METHOD
# &&&&values inside monitor proxy '{haddr:0, hselx:0, hburst:SINGLE, hmastlock:x, hprot:NORMAL_SECURE_DATA, hsize:WORD, hnonsec:1, hexcl:x, hmaster:x, htrans:IDLE, hwdata:'{0, 0, 0, 0, 0, 0, 0, 0, 0, 0, 0, 0, 0, 0, 0, 0, 3646682739}, hwstrb:'{0, 0, 0, 0, 0, 0, 0, 0, 0, 0, 0, 0, 0, 0, 0, 0, 15}, hwrite:READ, hrdata:'{0, 0, 0, 0, 0, 0, 0, 0, 0, 0, 0, 0, 0, 0, 0, 0, x}, hreadyout:1, hresp:OKAY, hexokay:x, hready:x, noOfWaitStates:0, busyControl:0}&&&
# UVM_INFO ../../src/hvlTop/slaveAgent/AhbSlaveSequenceItemConverter.sv(149) @ 170: reporter [ahbSlaveSequeceItemconverterClass] After randomizing noofwaitstate = 00000000000000000000000000000000
# UVM_INFO ../../src/hvlTop/slaveAgent/AhbSlaveSequenceItemConverter.sv(177) @ 170: reporter [ahbSlaveSequeceItemconverterClass] -------------------------------------------------------------
# UVM_INFO ../../src/hvlTop/slaveAgent/AhbSlaveMonitorProxy.sv(57) @ 170: uvm_test_top.ahbEnvironment.ahbSlaveAgent[0].ahbSlaveMonitorProxy [AhbSlaveMonitorProxy] Sending packet via analysis_port: , 
#  -----------------------------------------------------------------
# Name                Type                 Size  Value             
# -----------------------------------------------------------------
# slave Packet        AhbSlaveTransaction  -     @1270             
#   haddr             integral             32    'h0               
#   hselx             integral             1     'b0               
#   hburst            string               6     SINGLE            
#   hmastlock         integral             1     'h0               
#   hprot             string               18    NORMAL_SECURE_DATA
#   hsize             string               4     WORD              
#   hnonsec           integral             1     'h1               
#   hexcl             integral             1     'h0               
#   hmaster           integral             1     'd0               
#   htrans            string               4     IDLE              
#   hwrite            string               4     READ              
#   hreadyout         integral             1     'h1               
#   hresp             string               4     OKAY              
#   hexokay           integral             1     'h0               
#   hready            integral             1     'h0               
#   choosePacketData  integral             1     'd0               
#   hwdata[0]         integral             32    'hd95bf673        
#   hwstrb[0]         integral             4     'b1111            
# -----------------------------------------------------------------
# 
# UVM_INFO ../../src/hvlTop/slaveAgent/AhbSlaveCoverage.sv(61) @ 170: uvm_test_top.ahbEnvironment.ahbSlaveAgent[0].ahbSlaveCoverage [AhbSlaveCoverage] AHB SLAVE COVERAGE
# UVM_INFO ../../src/hvlTop/environment/AhbScoreboard.sv(78) @ 170: uvm_test_top.ahbEnvironment.ahbScoreboard [AhbScoreboard] after calling master's analysis fifo get method
# UVM_INFO ../../src/hvlTop/environment/AhbScoreboard.sv(88) @ 170: uvm_test_top.ahbEnvironment.ahbScoreboard [AhbScoreboard] after calling slave's analysis fifo get method
# UVM_INFO ../../src/hdlTop/slaveAgentBFM/AhbSlaveDriverBFM.sv(60) @ 170: reporter [AHB_SLAVE_DRIVER_BFM] AFTERHSELASSERTED HTRANSFER = 2
# UVM_INFO ../../src/hdlTop/slaveAgentBFM/AhbSlaveDriverBFM.sv(71) @ 170: reporter [AHB_SLAVE_DRIVER_BFM] DRIVING THE Single Transfer
# ** Info: HRESP is OKAY for valid transactions!
#    Time: 170 ns Started: 150 ns  Scope: HdlTop.ahbSlaveAgentBFM.ahbSlaveMonitorBFM.ahb_assert File: ../../src/hdlTop/slaveAgentBFM/AhbSlaveAssertion.sv Line: 50
# ** Info: HREADYOUT is high during valid transactions!
#    Time: 170 ns Started: 150 ns  Scope: HdlTop.ahbSlaveAgentBFM.ahbSlaveMonitorBFM.ahb_assert File: ../../src/hdlTop/slaveAgentBFM/AhbSlaveAssertion.sv Line: 31
# ** Info: Trans going from non seq to idle in single burst
#    Time: 170 ns Started: 150 ns  Scope: HdlTop.ahbMasterAgentBFM.ahbMasterMonitorBFM.ahb_cover File: ../../src/hdlTop/masterAgentBFM/AhbMasterCoverProperty.sv Line: 66
# ** Info: Address stability during waited transfer verified.
#    Time: 170 ns Started: 150 ns  Scope: HdlTop.ahbMasterAgentBFM.ahbMasterMonitorBFM.ahb_assert File: ../../src/hdlTop/masterAgentBFM/AhbMasterAssertion.sv Line: 126
# ** Info: HWDATA is Valid When HWRITE IS HIGH
#    Time: 170 ns Started: 150 ns  Scope: HdlTop.ahbMasterAgentBFM.ahbMasterMonitorBFM.ahb_assert File: ../../src/hdlTop/masterAgentBFM/AhbMasterAssertion.sv Line: 38
# ** Info: Valid Write Transfer
#    Time: 170 ns Started: 150 ns  Scope: HdlTop.ahbMasterAgentBFM.ahbMasterMonitorBFM.ahb_cover File: ../../src/hdlTop/masterAgentBFM/AhbMasterCoverProperty.sv Line: 49
# ** Info: HTRANS is Valid
#    Time: 170 ns Started: 150 ns  Scope: HdlTop.ahbMasterAgentBFM.ahbMasterMonitorBFM.ahb_assert File: ../../src/hdlTop/masterAgentBFM/AhbMasterAssertion.sv Line: 47
# ** Info: Hresp is valid
#    Time: 170 ns Started: 150 ns  Scope: HdlTop.ahbSlaveAgentBFM.ahbSlaveMonitorBFM.ahb_cover File: ../../src/hdlTop/slaveAgentBFM/AhbSlaveCoverProperty.sv Line: 57
# ** Info: Transfer is single
#    Time: 170 ns Started: 150 ns  Scope: HdlTop.ahbMasterAgentBFM.ahbMasterMonitorBFM.ahb_cover File: ../../src/hdlTop/masterAgentBFM/AhbMasterCoverProperty.sv Line: 41
# UVM_INFO ../../src/hdlTop/masterAgentBFM/AhbMasterDriverBFM.sv(86) @ 190: reporter [AHB_MASTER_DRIVER_BFM] Write Data: 0 to Address: f9967e6f
# UVM_INFO ../../src/hdlTop/masterAgentBFM/AhbMasterDriverBFM.sv(87) @ 190: reporter [AHB_MASTER_DRIVER_BFM] Write Data: 0 to Address: f9967e6f
# &&&&values inside master monitor proxy '{haddr:4187389551, hselx:1, hburst:SINGLE, hmastlock:0, hprot:PRIVILEGED_NONSECURE_DATA, hsize:BYTE, hnonsec:x, hexcl:x, hmaster:x, htrans:NONSEQ, hwdata:'{0, 0, 0, 0, 0, 0, 0, 0, 0, 0, 0, 0, 0, 0, 0, 0, 0}, hwstrb:'{0, 0, 0, 0, 0, 0, 0, 0, 0, 0, 0, 0, 0, 0, 0, 0, 1}, hwrite:WRITE, hrdata:'{0, 0, 0, 0, 0, 0, 0, 0, 0, 0, 0, 0, 0, 0, 0, 0, x}, hreadyout:x, hresp:OKAY, hexokay:x, hready:1, noOfWaitStates:0, busyControl:0}&&&
# UVM_INFO ../../src/hvlTop/masterAgent/AhbMasterMonitorProxy.sv(58) @ 190: uvm_test_top.ahbEnvironment.ahbMasterAgent[0].ahbMasterMonitorProxy [AhbMasterMonitorProxy] Sending packet via analysis_port: , 
#  -------------------------------------------------------------------------------
# Name                      Type                  Size  Value                    
# -------------------------------------------------------------------------------
# ahbMasterPacket           AhbMasterTransaction  -     @1274                    
#   haddr                   integral              32    'hf9967e6f               
#   hselx                   integral              1     'b1                      
#   hburst                  string                6     SINGLE                   
#   hmastlock               integral              1     'h0                      
#   hprot                   string                25    PRIVILEGED_NONSECURE_DATA
#   hsize                   string                4     BYTE                     
#   hnonsec                 integral              1     'h0                      
#   hexcl                   integral              1     'h0                      
#   hmaster                 integral              1     'd0                      
#   htrans                  string                6     NONSEQ                   
#   hwrite                  string                5     WRITE                    
#   hreadyout               integral              1     'h0                      
#   hresp                   string                4     OKAY                     
#   hexokay                 integral              1     'h0                      
#   hready                  integral              1     'h1                      
#   noOfwaitStatesDetected  integral              32    'h0                      
#   hwdata[0]               integral              32    'hd95bf673               
#   hwstrb[0]               integral              4     'b1111                   
# -------------------------------------------------------------------------------
# 
# UVM_INFO ../../src/hvlTop/masterAgent/AhbMasterCoverage.sv(181) @ 190: uvm_test_top.ahbEnvironment.ahbMasterAgent[0].ahbMasterCoverage [AhbMasterCoverage] Before calling SAMPLE METHOD
# UVM_INFO ../../src/hvlTop/masterAgent/AhbMasterCoverage.sv(183) @ 190: uvm_test_top.ahbEnvironment.ahbMasterAgent[0].ahbMasterCoverage [AhbMasterCoverage] After calling SAMPLE METHOD
# UVM_INFO ../../src/hdlTop/slaveAgentBFM/AhbSlaveDriverBFM.sv(171) @ 190: reporter [AHB_SLAVE_DRIVER_BFM] Bus is now out of wait cycles
# UVM_INFO ../../src/hvlTop/slaveAgent/AhbSlaveSequenceItemConverter.sv(149) @ 190: reporter [ahbSlaveSequeceItemconverterClass] After randomizing noofwaitstate = 00000000000000000000000000000000
# UVM_INFO ../../src/hvlTop/slaveAgent/AhbSlaveSequenceItemConverter.sv(177) @ 190: reporter [ahbSlaveSequeceItemconverterClass] -------------------------------------------------------------
# &&&&values inside monitor proxy '{haddr:4187389551, hselx:1, hburst:SINGLE, hmastlock:x, hprot:PRIVILEGED_NONSECURE_DATA, hsize:BYTE, hnonsec:0, hexcl:x, hmaster:x, htrans:NONSEQ, hwdata:'{0, 0, 0, 0, 0, 0, 0, 0, 0, 0, 0, 0, 0, 0, 0, 0, 0}, hwstrb:'{0, 0, 0, 0, 0, 0, 0, 0, 0, 0, 0, 0, 0, 0, 0, 0, 1}, hwrite:WRITE, hrdata:'{0, 0, 0, 0, 0, 0, 0, 0, 0, 0, 0, 0, 0, 0, 0, 0, x}, hreadyout:1, hresp:OKAY, hexokay:x, hready:x, noOfWaitStates:0, busyControl:0}&&&
# UVM_INFO ../../src/hvlTop/slaveAgent/AhbSlaveSequenceItemConverter.sv(149) @ 190: reporter [ahbSlaveSequeceItemconverterClass] After randomizing noofwaitstate = 00000000000000000000000000000000
# UVM_INFO ../../src/hvlTop/slaveAgent/AhbSlaveSequenceItemConverter.sv(177) @ 190: reporter [ahbSlaveSequeceItemconverterClass] -------------------------------------------------------------
