# vsim -vopt work.HvlTop work.HdlTop -voptargs="+acc=npr" -assertdebug "+UVM_TESTNAME=Ahb16bitIncr4WriteTest" "+UVM_VERBOSITY=UVM_HIGH" "+define+" -l Ahb16bitIncr4WriteTest_27022025-163057/Ahb16bitIncr4WriteTest.log -sva -coverage -c -do "log -r /*; add wave -r /*; coverage save -onexit -assert -directive -cvg -codeAll Ahb16bitIncr4WriteTest_27022025-163057/Ahb16bitIncr4WriteTest_coverage.ucdb; run -all; exit" -wlf Ahb16bitIncr4WriteTest_27022025-163057/waveform.wlf 
# Start time: 16:30:58 on Feb 27,2025
# ** Note: (vsim-8009) Loading existing optimized design _opt
# //  Questa Sim
# //  Version 10.6c linux Jul 25 2017
# //
# //  Copyright 1991-2017 Mentor Graphics Corporation
# //  All Rights Reserved.
# //
# //  QuestaSim and its associated documentation contain trade
# //  secrets and commercial or financial information that are the property of
# //  Mentor Graphics Corporation and are privileged, confidential,
# //  and exempt from disclosure under the Freedom of Information Act,
# //  5 U.S.C. Section 552. Furthermore, this information
# //  is prohibited from disclosure under the Trade Secrets Act,
# //  18 U.S.C. Section 1905.
# //
# Loading sv_std.std
# Loading work.AhbSlaveDriverBFM(fast)
# Loading work.AhbSlaveMonitorBFM(fast)
# Loading work.AhbGlobalPackage(fast)
# Loading mtiUvm.uvm_pkg
# Loading work.AhbSlavePackage(fast)
# Loading work.AhbMasterDriverBFM(fast)
# Loading work.AhbMasterMonitorBFM(fast)
# Loading work.AhbMasterPackage(fast)
# Loading work.AhbEnvironmentPackage(fast)
# Loading work.AhbSlaveSequencePackage(fast)
# Loading work.AhbMasterSequencePackage(fast)
# Loading work.AhbVirtualSequencePackage(fast)
# Loading work.AhbBaseTestPackage(fast)
# Loading work.HvlTop(fast)
# Loading work.HdlTop(fast)
# Loading work.AhbInterface_sv_unit(fast)
# Loading work.AhbInterface(fast)
# Loading work.AhbMasterAgentBFM(fast)
# Loading work.AhbMasterDriverBFM_sv_unit(fast)
# Loading work.AhbMasterDriverBFM(fast)
# Loading work.AhbMasterMonitorBFM_sv_unit(fast)
# Loading work.AhbMasterMonitorBFM(fast)
# Loading work.AhbMasterCoverProperty_sv_unit(fast)
# Loading work.AhbMasterCoverProperty(fast)
# Loading work.AhbMasterAssertion_sv_unit(fast)
# Loading work.AhbMasterAssertion(fast)
# Loading work.AhbSlaveAgentBFM(fast)
# Loading work.AhbSlaveDriverBFM_sv_unit(fast)
# Loading work.AhbSlaveDriverBFM(fast)
# Loading work.AhbSlaveMonitorBFM_sv_unit(fast)
# Loading work.AhbSlaveMonitorBFM(fast)
# Loading work.AhbSlaveCoverProperty_sv_unit(fast)
# Loading work.AhbSlaveCoverProperty(fast)
# Loading work.AhbSlaveAssertion_sv_unit(fast)
# Loading work.AhbSlaveAssertion(fast)
# Loading mtiUvm.questa_uvm_pkg(fast)
# Loading /tools/mentor/questasim_10.6c/questasim/uvm-1.1d/linux/uvm_dpi.so
# log -r /*
#  add wave -r /*
#  coverage save -onexit -assert -directive -cvg -codeAll Ahb16bitIncr4WriteTest_27022025-163057/Ahb16bitIncr4WriteTest_coverage.ucdb
#  run -all
# ----------------------------------------------------------------
# UVM-1.1d
# (C) 2007-2013 Mentor Graphics Corporation
# (C) 2007-2013 Cadence Design Systems, Inc.
# (C) 2006-2013 Synopsys, Inc.
# (C) 2011-2013 Cypress Semiconductor Corp.
# ----------------------------------------------------------------
# 
#   ***********       IMPORTANT RELEASE NOTES         ************
# 
#   You are using a version of the UVM library that has been compiled
#   with `UVM_NO_DEPRECATED undefined.
#   See http://www.eda.org/svdb/view.php?id=3313 for more details.
# 
#   You are using a version of the UVM library that has been compiled
#   with `UVM_OBJECT_MUST_HAVE_CONSTRUCTOR undefined.
#   See http://www.eda.org/svdb/view.php?id=3770 for more details.
# 
#       (Specify +UVM_NO_RELNOTES to turn off this notice)
# 
# UVM_INFO verilog_src/questa_uvm_pkg-1.2/src/questa_uvm_pkg.sv(215) @ 0: reporter [Questa UVM] QUESTA_UVM-1.2.3
# UVM_INFO verilog_src/questa_uvm_pkg-1.2/src/questa_uvm_pkg.sv(217) @ 0: reporter [Questa UVM]  questa_uvm::init(+struct)
# UVM_INFO @ 0: reporter [RNTST] Running test Ahb16bitIncr4WriteTest...
# UVM_INFO ../../src/hdlTop/HdlTop.sv(14) @ 0: reporter [HDL_TOP] HDL_TOP
# UVM_INFO ../../src/hdlTop/masterAgentBFM/AhbMasterAgentBFM.sv(10) @ 0: reporter [ahb master agent bfm] AHB MASTER AGENT BFM
# UVM_INFO ../../src/hdlTop/masterAgentBFM/AhbMasterDriverBFM.sv(33) @ 0: reporter [AHB_MASTER_DRIVER_BFM] AHB_MASTER_DRIVER_BFM
# UVM_INFO ../../src/hdlTop/masterAgentBFM/AhbMasterMonitorBFM.sv(39) @ 0: reporter [AHB_MASTER_MONITOR_BFM] AHB MASTER MONITOR BFM
# UVM_INFO ../../src/hdlTop/masterAgentBFM/AhbMasterCoverProperty.sv(32) @ 0: reporter [AhbMasterCoverProperty] AhbMasterCoverProperty
# UVM_INFO ../../src/hdlTop/masterAgentBFM/AhbMasterAssertion.sv(29) @ 0: reporter [MASTER_ASSERTIONS] MASTER_ASSERTIONS
# UVM_INFO ../../src/hdlTop/slaveAgentBFM/AhbSlaveAgentBFM.sv(10) @ 0: reporter [ahb slave agent bfm] AHB SLAVE AGENT BFM
# UVM_INFO ../../src/hdlTop/slaveAgentBFM/AhbSlaveDriverBFM.sv(38) @ 0: reporter [AHB_SLAVE_DRIVER_BFM] AHB_SLAVE_DRIVER_BFM
# UVM_INFO ../../src/hdlTop/slaveAgentBFM/AhbSlaveMonitorBFM.sv(39) @ 0: reporter [AHB_SLAVE_MONITOR_BFM] AHB_SLAVE_MONITOR_BFM
# UVM_INFO ../../src/hdlTop/slaveAgentBFM/AhbSlaveCoverProperty.sv(32) @ 0: reporter [AhbSlaveCoverProperty] AhbSlaveCoverProperty
# UVM_INFO ../../src/hvlTop/tb/test/AhbBaseTest.sv(49) @ 0: uvm_test_top [Ahb16bitIncr4WriteTest] 
# AHB_MASTER_CONFIG[0]
# ----------------------------------------------------------
# Name                     Type                  Size  Value
# ----------------------------------------------------------
# AhbMasterAgentConfig[0]  AhbMasterAgentConfig  -     @497 
#   is_active              integral              1     1    
#   hasCoverage            integral              1     1    
# ----------------------------------------------------------
# 
# UVM_INFO ../../src/hvlTop/tb/test/AhbBaseTest.sv(61) @ 0: uvm_test_top [Ahb16bitIncr4WriteTest] 
# AHB_SLAVE_CONFIG[0]
# -------------------------------------------------------------
# Name                    Type                 Size  Value     
# -------------------------------------------------------------
# AhbSlaveAgentConfig[0]  AhbSlaveAgentConfig  -     @502      
#   is_active             string               10    UVM_ACTIVE
#   hasCoverage           integral             1     1         
#   maximumAddress        integral             32    'h0       
#   minimumAddress        integral             32    'h0       
# -------------------------------------------------------------
# 
# UVM_INFO ../../src/hvlTop/tb/test/AhbBaseTest.sv(65) @ 0: uvm_test_top [Ahb16bitIncr4WriteTest] 
# AHB_ENV_CONFIG
# --------------------------------------------------------
# Name                   Type                  Size  Value
# --------------------------------------------------------
# ahbEnvironmentConfig   AhbEnvironmentConfig  -     @496 
#   hasScoreboard        integral              1     1    
#   hasVirtualSequencer  integral              1     1    
#   noOfMasters          integral              32    'd1  
#   noOfSlaves           integral              32    'd1  
# --------------------------------------------------------
# 
# UVM_INFO @ 0: reporter [UVMTOP] UVM testbench topology:
# -----------------------------------------------------------------------
# Name                            Type                        Size  Value
# -----------------------------------------------------------------------
# uvm_test_top                    Ahb16bitIncr4WriteTest      -     @473 
#   ahbEnvironment                AhbEnvironment              -     @511 
#     ahbMasterAgent[0]           AhbMasterAgent              -     @520 
#       ahbMasterCoverage         AhbMasterCoverage           -     @893 
#         analysis_imp            uvm_analysis_imp            -     @900 
#       ahbMasterDriverProxy      AhbMasterDriverProxy        -     @855 
#         rsp_port                uvm_analysis_port           -     @870 
#         seq_item_port           uvm_seq_item_pull_port      -     @862 
#       ahbMasterMonitorProxy     AhbMasterMonitorProxy       -     @878 
#         ahbMasterAnalysisPort   uvm_analysis_port           -     @885 
#       ahbMasterSequencer        AhbMasterSequencer          -     @746 
#         rsp_export              uvm_analysis_export         -     @753 
#         seq_item_export         uvm_seq_item_pull_imp       -     @847 
#         arbitration_queue       array                       0     -    
#         lock_queue              array                       0     -    
#         num_last_reqs           integral                    32    'd1  
#         num_last_rsps           integral                    32    'd1  
#     ahbScoreboard               AhbScoreboard               -     @644 
#       ahbMasterAnalysisFifo[0]  uvm_tlm_analysis_fifo #(T)  -     @651 
#         analysis_export         uvm_analysis_imp            -     @690 
#         get_ap                  uvm_analysis_port           -     @682 
#         get_peek_export         uvm_get_peek_imp            -     @666 
#         put_ap                  uvm_analysis_port           -     @674 
#         put_export              uvm_put_imp                 -     @658 
#       ahbSlaveAnalysisFifo[0]   uvm_tlm_analysis_fifo #(T)  -     @698 
#         analysis_export         uvm_analysis_imp            -     @737 
#         get_ap                  uvm_analysis_port           -     @729 
#         get_peek_export         uvm_get_peek_imp            -     @713 
#         put_ap                  uvm_analysis_port           -     @721 
#         put_export              uvm_put_imp                 -     @705 
#     ahbSlaveAgent[0]            AhbSlaveAgent               -     @528 
#       ahbSlaveCoverage          AhbSlaveCoverage            -     @1063
#         analysis_imp            uvm_analysis_imp            -     @1070
#       ahbSlaveDriverProxy       AhbSlaveDriverProxy         -     @1025
#         rsp_port                uvm_analysis_port           -     @1040
#         seq_item_port           uvm_seq_item_pull_port      -     @1032
#       ahbSlaveMonitorProxy      AhbSlaveMonitorProxy        -     @1048
#         ahbSlaveAnalysisPort    uvm_analysis_port           -     @1055
#       ahbSlaveSequencer         AhbSlaveSequencer           -     @916 
#         rsp_export              uvm_analysis_export         -     @923 
#         seq_item_export         uvm_seq_item_pull_imp       -     @1017
#         arbitration_queue       array                       0     -    
#         lock_queue              array                       0     -    
#         num_last_reqs           integral                    32    'd1  
#         num_last_rsps           integral                    32    'd1  
#     ahbVirtualSequencer         AhbVirtualSequencer         -     @535 
#       rsp_export                uvm_analysis_export         -     @542 
#       seq_item_export           uvm_seq_item_pull_imp       -     @636 
#       arbitration_queue         array                       0     -    
#       lock_queue                array                       0     -    
#       num_last_reqs             integral                    32    'd1  
#       num_last_rsps             integral                    32    'd1  
# -----------------------------------------------------------------------
# 
# UVM_INFO verilog_src/questa_uvm_pkg-1.2/src/questa_uvm_pkg.sv(277) @ 0: reporter [Questa UVM] End Of Elaboration
# UVM_INFO ../../src/hvlTop/tb/test/Ahb16bitIncr4WriteTest.sv(24) @ 0: uvm_test_top [Ahb16bitIncr4WriteTest] Ahb16bitIncr4WriteTest
# UVM_INFO ../../src/hvlTop/slaveAgent/AhbSlaveDriverProxy.sv(48) @ 0: uvm_test_top.ahbEnvironment.ahbSlaveAgent[0].ahbSlaveDriverProxy [AhbSlaveDriverProxy]  BEFORERESET 
#  
# UVM_INFO ../../src/hvlTop/masterAgent/AhbMasterMonitorProxy.sv(41) @ 0: uvm_test_top.ahbEnvironment.ahbMasterAgent[0].ahbMasterMonitorProxy [AhbMasterMonitorProxy] Inside the master_monitor_proxy
# UVM_INFO ../../src/hdlTop/masterAgentBFM/AhbMasterDriverBFM.sv(38) @ 15: reporter [AHB_MASTER_DRIVER_BFM] SYSTEM RESET DETECTED
# UVM_INFO ../../src/hdlTop/masterAgentBFM/AhbMasterMonitorBFM.sv(44) @ 15: reporter [AHB_MASTER_MONITOR_BFM] system reset detected
# UVM_INFO ../../src/hdlTop/slaveAgentBFM/AhbSlaveDriverBFM.sv(43) @ 15: reporter [AHB_SLAVE_DRIVER_BFM] SYSTEM RESET DETECTED
# UVM_INFO ../../src/hdlTop/slaveAgentBFM/AhbSlaveMonitorBFM.sv(44) @ 15: reporter [AHB_SLAVE_MONITOR_BFM] SYSTEM_RESET_DETECTED
# UVM_INFO ../../src/hdlTop/masterAgentBFM/AhbMasterDriverBFM.sv(41) @ 30: reporter [AHB_MASTER_DRIVER_BFM] SYSTEM RESET DEACTIVATED
# UVM_INFO ../../src/hdlTop/masterAgentBFM/AhbMasterMonitorBFM.sv(47) @ 30: reporter [AHB_MASTER_MONITOR_BFM] system reset deactivated
# UVM_INFO ../../src/hdlTop/slaveAgentBFM/AhbSlaveDriverBFM.sv(46) @ 30: reporter [AHB_SLAVE_DRIVER_BFM] SYSTEM RESET DEACTIVATED
# UVM_INFO ../../src/hdlTop/slaveAgentBFM/AhbSlaveMonitorBFM.sv(47) @ 30: reporter [AHB_SLAVE_MONITOR_BFM] SYSTEM_RESET_DEACTIVATED
# ---------------------------------------------------------
# Name                Type                 Size  Value     
# ---------------------------------------------------------
# req                 AhbSlaveTransaction  -     @1124     
#   haddr             integral             32    'h0       
#   hselx             integral             1     'b0       
#   hburst            string               0     ""        
#   hmastlock         integral             1     'h0       
#   hprot             string               0     ""        
#   hsize             string               0     ""        
#   hnonsec           integral             1     'h0       
#   hexcl             integral             1     'h0       
#   hmaster           integral             1     'd0       
#   htrans            string               0     ""        
#   hwrite            string               4     READ      
#   hreadyout         integral             1     'h0       
#   hresp             string               0     ""        
#   hexokay           integral             1     'h0       
#   hready            integral             1     'h0       
#   choosePacketData  integral             1     'd0       
#   hrdata[0]         integral             32    'h36a34070
#   hrdata[1]         integral             32    'hd8816106
#   hrdata[2]         integral             32    'h651efa59
#   hrdata[3]         integral             32    'h66055e8b
#   hrdata[4]         integral             32    'h4c87dfba
#   hrdata[5]         integral             32    'hdf8b4b01
#   hrdata[6]         integral             32    'hca7c6dfc
#   hrdata[7]         integral             32    'h7a10c4c2
#   hrdata[8]         integral             32    'haa03840a
#   hrdata[9]         integral             32    'h66a6ec5f
#   hrdata[10]        integral             32    'h336ed20e
#   hrdata[11]        integral             32    'h61553e18
#   hrdata[12]        integral             32    'ha9b7074d
#   hrdata[13]        integral             32    'h55c7c490
#   hrdata[14]        integral             32    'hfc7e985e
#   hrdata[15]        integral             32    'h7f2b2d2a
# ---------------------------------------------------------
# UVM_INFO ../../src/hvlTop/masterAgent/masterSequences/AhbMaster16bitIncr4WriteSequence.sv(23) @ 30: uvm_test_top.ahbEnvironment.ahbMasterAgent[0].ahbMasterSequencer@@ahbMaster16bitIncr4WriteSequence [AHB] req is of type: AhbMasterTransaction
# UVM_INFO ../../src/hvlTop/slaveAgent/AhbSlaveSequenceItemConverter.sv(65) @ 30: reporter [ahbSlaveSequeceItemconverterClass] After randomizing noofwaitstate = 00000000000000000000000000000000
# UVM_INFO ../../src/hvlTop/slaveAgent/AhbSlaveSequenceItemConverter.sv(95) @ 30: reporter [ahbSlaveSequeceItemconverterClass] -------------------------------------------------------------
# UVM_INFO ../../src/hdlTop/slaveAgentBFM/AhbSlaveDriverBFM.sv(52) @ 30: reporter [AHB_SLAVE_DRIVER_BFM] DRIVE TO BFM TASK
# UVM_INFO ../../src/hvlTop/masterAgent/AhbMasterDriverProxy.sv(58) @ 30: uvm_test_top.ahbEnvironment.ahbMasterAgent[0].ahbMasterDriverProxy [AhbMasterDriverProxy] REQ-MASTERTX 
#  --------------------------------------------------------------------------------------
# Name                      Type                  Size  Value                           
# --------------------------------------------------------------------------------------
# req                       AhbMasterTransaction  -     @1120                           
#   haddr                   integral              32    'hf3d08a66                      
#   hselx                   integral              1     'b1                             
#   hburst                  string                5     INCR4                           
#   hmastlock               integral              1     'h0                             
#   hprot                   string                32    PRIVILEGED_NONSECURE_INSTRUCTION
#   hsize                   string                8     HALFWORD                        
#   hnonsec                 integral              1     'h0                             
#   hexcl                   integral              1     'h1                             
#   hmaster                 integral              1     'd0                             
#   htrans                  string                6     NONSEQ                          
#   hwrite                  string                5     WRITE                           
#   hreadyout               integral              1     'h0                             
#   hresp                   string                0     ""                              
#   hexokay                 integral              1     'h1                             
#   hready                  integral              1     'h0                             
#   noOfwaitStatesDetected  integral              32    'h0                             
#   hwdata[0]               integral              32    'hd4114def                      
#   hwdata[1]               integral              32    'h1f492cf3                      
#   hwdata[2]               integral              32    'hd18741b9                      
#   hwdata[3]               integral              32    'he4061b60                      
#   hwstrb[0]               integral              4     'b11                            
#   hwstrb[1]               integral              4     'b101                           
#   hwstrb[2]               integral              4     'b101                           
#   hwstrb[3]               integral              4     'b11                            
#   busyControl[0]          integral              1     'h0                             
#   busyControl[1]          integral              1     'h1                             
#   busyControl[2]          integral              1     'h0                             
#   busyControl[3]          integral              1     'h0                             
# --------------------------------------------------------------------------------------
# 
# UVM_INFO ../../src/hdlTop/masterAgentBFM/AhbMasterDriverBFM.sv(47) @ 30: reporter [AHB_MASTER_DRIVER_BFM] DRIVE TO BFM TASK
# &&&&values inside master monitor proxy '{haddr:x, hselx:x, hburst:x, hmastlock:x, hprot:x, hsize:x, hnonsec:x, hexcl:x, hmaster:x, htrans:IDLE, hwdata:'{x, x, x, x, x, x, x, x, x, x, x, x, x, x, x, x, x}, hwstrb:'{0, 0, 0, 0, 0, 0, 0, 0, 0, 0, 0, 0, 0, 0, 0, 0, x}, hwrite:READ, hrdata:'{0, 0, 0, 0, 0, 0, 0, 0, 0, 0, 0, 0, 0, 0, 0, 0, x}, hreadyout:x, hresp:x, hexokay:x, hready:x, noOfWaitStates:0, busyControl:0}&&&
# UVM_INFO ../../src/hvlTop/masterAgent/AhbMasterMonitorProxy.sv(58) @ 50: uvm_test_top.ahbEnvironment.ahbMasterAgent[0].ahbMasterMonitorProxy [AhbMasterMonitorProxy] Sending packet via analysis_port: , 
#  -----------------------------------------------------------
# Name                      Type                  Size  Value
# -----------------------------------------------------------
# ahbMasterPacket           AhbMasterTransaction  -     @1200
#   haddr                   integral              32    'h0  
#   hselx                   integral              1     'b0  
#   hburst                  string                0     ""   
#   hmastlock               integral              1     'h0  
#   hprot                   string                0     ""   
#   hsize                   string                0     ""   
#   hnonsec                 integral              1     'h0  
#   hexcl                   integral              1     'h0  
#   hmaster                 integral              1     'd0  
#   htrans                  string                4     IDLE 
#   hwrite                  string                4     READ 
#   hreadyout               integral              1     'h0  
#   hresp                   string                0     ""   
#   hexokay                 integral              1     'h0  
#   hready                  integral              1     'h0  
#   noOfwaitStatesDetected  integral              32    'h0  
# -----------------------------------------------------------
# 
# UVM_INFO ../../src/hvlTop/masterAgent/AhbMasterCoverage.sv(180) @ 50: uvm_test_top.ahbEnvironment.ahbMasterAgent[0].ahbMasterCoverage [AhbMasterCoverage] Before calling SAMPLE METHOD
# UVM_INFO ../../src/hvlTop/masterAgent/AhbMasterCoverage.sv(182) @ 50: uvm_test_top.ahbEnvironment.ahbMasterAgent[0].ahbMasterCoverage [AhbMasterCoverage] After calling SAMPLE METHOD
# &&&&values inside monitor proxy '{haddr:x, hselx:x, hburst:x, hmastlock:x, hprot:x, hsize:x, hnonsec:x, hexcl:x, hmaster:x, htrans:IDLE, hwdata:'{x, x, x, x, x, x, x, x, x, x, x, x, x, x, x, x, x}, hwstrb:'{x, x, x, x, x, x, x, x, x, x, x, x, x, x, x, x, x}, hwrite:READ, hrdata:'{0, 0, 0, 0, 0, 0, 0, 0, 0, 0, 0, 0, 0, 0, 0, 0, x}, hreadyout:x, hresp:x, hexokay:x, hready:x, noOfWaitStates:0, busyControl:0}&&&
# UVM_INFO ../../src/hvlTop/slaveAgent/AhbSlaveSequenceItemConverter.sv(149) @ 50: reporter [ahbSlaveSequeceItemconverterClass] After randomizing noofwaitstate = 00000000000000000000000000000000
# UVM_INFO ../../src/hvlTop/slaveAgent/AhbSlaveSequenceItemConverter.sv(177) @ 50: reporter [ahbSlaveSequeceItemconverterClass] -------------------------------------------------------------
# UVM_INFO ../../src/hvlTop/slaveAgent/AhbSlaveMonitorProxy.sv(57) @ 50: uvm_test_top.ahbEnvironment.ahbSlaveAgent[0].ahbSlaveMonitorProxy [AhbSlaveMonitorProxy] Sending packet via analysis_port: , 
#  ----------------------------------------------------
# Name                Type                 Size  Value
# ----------------------------------------------------
# slave Packet        AhbSlaveTransaction  -     @1204
#   haddr             integral             32    'h0  
#   hselx             integral             1     'b0  
#   hburst            string               0     ""   
#   hmastlock         integral             1     'h0  
#   hprot             string               0     ""   
#   hsize             string               0     ""   
#   hnonsec           integral             1     'h0  
#   hexcl             integral             1     'h0  
#   hmaster           integral             1     'd0  
#   htrans            string               4     IDLE 
#   hwrite            string               4     READ 
#   hreadyout         integral             1     'h0  
#   hresp             string               0     ""   
#   hexokay           integral             1     'h0  
#   hready            integral             1     'h0  
#   choosePacketData  integral             1     'd0  
# ----------------------------------------------------
# 
# UVM_INFO ../../src/hvlTop/slaveAgent/AhbSlaveCoverage.sv(61) @ 50: uvm_test_top.ahbEnvironment.ahbSlaveAgent[0].ahbSlaveCoverage [AhbSlaveCoverage] AHB SLAVE COVERAGE
# UVM_INFO ../../src/hvlTop/environment/AhbScoreboard.sv(78) @ 50: uvm_test_top.ahbEnvironment.ahbScoreboard [AhbScoreboard] after calling master's analysis fifo get method
# UVM_INFO ../../src/hvlTop/environment/AhbScoreboard.sv(88) @ 50: uvm_test_top.ahbEnvironment.ahbScoreboard [AhbScoreboard] after calling slave's analysis fifo get method
# UVM_INFO ../../src/hdlTop/slaveAgentBFM/AhbSlaveDriverBFM.sv(60) @ 50: reporter [AHB_SLAVE_DRIVER_BFM] AFTERHSELASSERTED HTRANSFER = 2
# UVM_INFO ../../src/hdlTop/slaveAgentBFM/AhbSlaveDriverBFM.sv(100) @ 50: reporter [AHB_SLAVE_DRIVER_BFM] STARTEDBURSTTRANSFERTASK
# &&&&values inside master monitor proxy '{haddr:4090530406, hselx:1, hburst:INCR4, hmastlock:0, hprot:PRIVILEGED_NONSECURE_INSTRUCTION, hsize:HALFWORD, hnonsec:x, hexcl:x, hmaster:x, htrans:NONSEQ, hwdata:'{0, 0, 0, 0, 0, 0, 0, 0, 0, 0, 0, 0, 0, 0, 0, 0, x}, hwstrb:'{0, 0, 0, 0, 0, 0, 0, 0, 0, 0, 0, 0, 0, 0, 0, 0, 3}, hwrite:WRITE, hrdata:'{0, 0, 0, 0, 0, 0, 0, 0, 0, 0, 0, 0, 0, 0, 0, 0, x}, hreadyout:x, hresp:x, hexokay:x, hready:x, noOfWaitStates:0, busyControl:0}&&&
# UVM_INFO ../../src/hvlTop/masterAgent/AhbMasterMonitorProxy.sv(58) @ 70: uvm_test_top.ahbEnvironment.ahbMasterAgent[0].ahbMasterMonitorProxy [AhbMasterMonitorProxy] Sending packet via analysis_port: , 
#  --------------------------------------------------------------------------------------
# Name                      Type                  Size  Value                           
# --------------------------------------------------------------------------------------
# ahbMasterPacket           AhbMasterTransaction  -     @1208                           
#   haddr                   integral              32    'hf3d08a66                      
#   hselx                   integral              1     'b1                             
#   hburst                  string                5     INCR4                           
#   hmastlock               integral              1     'h0                             
#   hprot                   string                32    PRIVILEGED_NONSECURE_INSTRUCTION
#   hsize                   string                8     HALFWORD                        
#   hnonsec                 integral              1     'h0                             
#   hexcl                   integral              1     'h0                             
#   hmaster                 integral              1     'd0                             
#   htrans                  string                6     NONSEQ                          
#   hwrite                  string                5     WRITE                           
#   hreadyout               integral              1     'h0                             
#   hresp                   string                0     ""                              
#   hexokay                 integral              1     'h0                             
#   hready                  integral              1     'h0                             
#   noOfwaitStatesDetected  integral              32    'h0                             
# --------------------------------------------------------------------------------------
# 
# UVM_INFO ../../src/hvlTop/masterAgent/AhbMasterCoverage.sv(180) @ 70: uvm_test_top.ahbEnvironment.ahbMasterAgent[0].ahbMasterCoverage [AhbMasterCoverage] Before calling SAMPLE METHOD
# UVM_INFO ../../src/hvlTop/masterAgent/AhbMasterCoverage.sv(182) @ 70: uvm_test_top.ahbEnvironment.ahbMasterAgent[0].ahbMasterCoverage [AhbMasterCoverage] After calling SAMPLE METHOD
# UVM_INFO ../../src/hdlTop/slaveAgentBFM/AhbSlaveDriverBFM.sv(161) @ 70: reporter [AHB_SLAVE_DRIVER_BFM] Bus is now out of wait cycles
# UVM_INFO ../../src/hdlTop/slaveAgentBFM/AhbSlaveDriverBFM.sv(121) @ 70: reporter [AHB_SLAVE_DRIVER_BFM] Busy = 0
# &&&&values inside monitor proxy '{haddr:4090530406, hselx:1, hburst:INCR4, hmastlock:x, hprot:PRIVILEGED_NONSECURE_INSTRUCTION, hsize:HALFWORD, hnonsec:0, hexcl:x, hmaster:x, htrans:NONSEQ, hwdata:'{0, 0, 0, 0, 0, 0, 0, 0, 0, 0, 0, 0, 0, 0, 0, 0, x}, hwstrb:'{0, 0, 0, 0, 0, 0, 0, 0, 0, 0, 0, 0, 0, 0, 0, 0, 3}, hwrite:WRITE, hrdata:'{0, 0, 0, 0, 0, 0, 0, 0, 0, 0, 0, 0, 0, 0, 0, 0, x}, hreadyout:x, hresp:x, hexokay:x, hready:x, noOfWaitStates:0, busyControl:0}&&&
# UVM_INFO ../../src/hvlTop/slaveAgent/AhbSlaveSequenceItemConverter.sv(149) @ 70: reporter [ahbSlaveSequeceItemconverterClass] After randomizing noofwaitstate = 00000000000000000000000000000000
# UVM_INFO ../../src/hvlTop/slaveAgent/AhbSlaveSequenceItemConverter.sv(177) @ 70: reporter [ahbSlaveSequeceItemconverterClass] -------------------------------------------------------------
# UVM_INFO ../../src/hvlTop/slaveAgent/AhbSlaveMonitorProxy.sv(57) @ 70: uvm_test_top.ahbEnvironment.ahbSlaveAgent[0].ahbSlaveMonitorProxy [AhbSlaveMonitorProxy] Sending packet via analysis_port: , 
#  -------------------------------------------------------------------------------
# Name                Type                 Size  Value                           
# -------------------------------------------------------------------------------
# slave Packet        AhbSlaveTransaction  -     @1212                           
#   haddr             integral             32    'hf3d08a66                      
#   hselx             integral             1     'b1                             
#   hburst            string               5     INCR4                           
#   hmastlock         integral             1     'h0                             
#   hprot             string               32    PRIVILEGED_NONSECURE_INSTRUCTION
#   hsize             string               8     HALFWORD                        
#   hnonsec           integral             1     'h0                             
#   hexcl             integral             1     'h0                             
#   hmaster           integral             1     'd0                             
#   htrans            string               6     NONSEQ                          
#   hwrite            string               5     WRITE                           
#   hreadyout         integral             1     'h0                             
#   hresp             string               0     ""                              
#   hexokay           integral             1     'h0                             
#   hready            integral             1     'h0                             
#   choosePacketData  integral             1     'd0                             
# -------------------------------------------------------------------------------
# 
# UVM_INFO ../../src/hvlTop/slaveAgent/AhbSlaveCoverage.sv(61) @ 70: uvm_test_top.ahbEnvironment.ahbSlaveAgent[0].ahbSlaveCoverage [AhbSlaveCoverage] AHB SLAVE COVERAGE
# UVM_INFO ../../src/hvlTop/environment/AhbScoreboard.sv(78) @ 70: uvm_test_top.ahbEnvironment.ahbScoreboard [AhbScoreboard] after calling master's analysis fifo get method
# UVM_INFO ../../src/hvlTop/environment/AhbScoreboard.sv(88) @ 70: uvm_test_top.ahbEnvironment.ahbScoreboard [AhbScoreboard] after calling slave's analysis fifo get method
# UVM_INFO ../../src/hdlTop/masterAgentBFM/AhbMasterDriverBFM.sv(136) @ 70: reporter [THOR] THOR1
# ** Info: Hwstrb valid
#    Time: 70 ns Started: 70 ns  Scope: HdlTop.ahbMasterAgentBFM.ahbMasterMonitorBFM.ahb_assert File: ../../src/hdlTop/masterAgentBFM/AhbMasterAssertion.sv Line: 198
# UVM_INFO ../../src/hdlTop/masterAgentBFM/AhbMasterDriverBFM.sv(136) @ 90: reporter [THOR] THOR1
# UVM_INFO ../../src/hdlTop/masterAgentBFM/AhbMasterDriverBFM.sv(175) @ 90: reporter [AHB_MASTER_DRIVER_BFM] Driving BUSY Transfer at Address: f3d08a66
# &&&&values inside master monitor proxy '{haddr:4090530406, hselx:1, hburst:INCR4, hmastlock:0, hprot:PRIVILEGED_NONSECURE_INSTRUCTION, hsize:HALFWORD, hnonsec:x, hexcl:x, hmaster:x, htrans:NONSEQ, hwdata:'{0, 0, 0, 0, 0, 0, 0, 0, 0, 0, 0, 0, 0, 0, 0, 0, x}, hwstrb:'{0, 0, 0, 0, 0, 0, 0, 0, 0, 0, 0, 0, 0, 0, 0, 0, 3}, hwrite:WRITE, hrdata:'{0, 0, 0, 0, 0, 0, 0, 0, 0, 0, 0, 0, 0, 0, 0, 0, x}, hreadyout:x, hresp:x, hexokay:x, hready:1, noOfWaitStates:0, busyControl:0}&&&
# UVM_INFO ../../src/hvlTop/masterAgent/AhbMasterMonitorProxy.sv(58) @ 90: uvm_test_top.ahbEnvironment.ahbMasterAgent[0].ahbMasterMonitorProxy [AhbMasterMonitorProxy] Sending packet via analysis_port: , 
#  --------------------------------------------------------------------------------------
# Name                      Type                  Size  Value                           
# --------------------------------------------------------------------------------------
# ahbMasterPacket           AhbMasterTransaction  -     @1216                           
#   haddr                   integral              32    'hf3d08a66                      
#   hselx                   integral              1     'b1                             
#   hburst                  string                5     INCR4                           
#   hmastlock               integral              1     'h0                             
#   hprot                   string                32    PRIVILEGED_NONSECURE_INSTRUCTION
#   hsize                   string                8     HALFWORD                        
#   hnonsec                 integral              1     'h0                             
#   hexcl                   integral              1     'h0                             
#   hmaster                 integral              1     'd0                             
#   htrans                  string                6     NONSEQ                          
#   hwrite                  string                5     WRITE                           
#   hreadyout               integral              1     'h0                             
#   hresp                   string                0     ""                              
#   hexokay                 integral              1     'h0                             
#   hready                  integral              1     'h1                             
#   noOfwaitStatesDetected  integral              32    'h0                             
# --------------------------------------------------------------------------------------
# 
# UVM_INFO ../../src/hvlTop/masterAgent/AhbMasterCoverage.sv(180) @ 90: uvm_test_top.ahbEnvironment.ahbMasterAgent[0].ahbMasterCoverage [AhbMasterCoverage] Before calling SAMPLE METHOD
# UVM_INFO ../../src/hvlTop/masterAgent/AhbMasterCoverage.sv(182) @ 90: uvm_test_top.ahbEnvironment.ahbMasterAgent[0].ahbMasterCoverage [AhbMasterCoverage] After calling SAMPLE METHOD
# UVM_INFO ../../src/hdlTop/slaveAgentBFM/AhbSlaveDriverBFM.sv(121) @ 90: reporter [AHB_SLAVE_DRIVER_BFM] Busy = 0
# &&&&values inside monitor proxy '{haddr:4090530406, hselx:1, hburst:INCR4, hmastlock:x, hprot:PRIVILEGED_NONSECURE_INSTRUCTION, hsize:HALFWORD, hnonsec:0, hexcl:x, hmaster:x, htrans:NONSEQ, hwdata:'{0, 0, 0, 0, 0, 0, 0, 0, 0, 0, 0, 0, 0, 0, 0, 0, x}, hwstrb:'{0, 0, 0, 0, 0, 0, 0, 0, 0, 0, 0, 0, 0, 0, 0, 0, 3}, hwrite:WRITE, hrdata:'{0, 0, 0, 0, 0, 0, 0, 0, 0, 0, 0, 0, 0, 0, 0, 0, x}, hreadyout:1, hresp:x, hexokay:x, hready:x, noOfWaitStates:0, busyControl:0}&&&
# UVM_INFO ../../src/hvlTop/slaveAgent/AhbSlaveSequenceItemConverter.sv(149) @ 90: reporter [ahbSlaveSequeceItemconverterClass] After randomizing noofwaitstate = 00000000000000000000000000000000
# UVM_INFO ../../src/hvlTop/slaveAgent/AhbSlaveSequenceItemConverter.sv(177) @ 90: reporter [ahbSlaveSequeceItemconverterClass] -------------------------------------------------------------
# UVM_INFO ../../src/hvlTop/slaveAgent/AhbSlaveMonitorProxy.sv(57) @ 90: uvm_test_top.ahbEnvironment.ahbSlaveAgent[0].ahbSlaveMonitorProxy [AhbSlaveMonitorProxy] Sending packet via analysis_port: , 
#  -------------------------------------------------------------------------------
# Name                Type                 Size  Value                           
# -------------------------------------------------------------------------------
# slave Packet        AhbSlaveTransaction  -     @1220                           
#   haddr             integral             32    'hf3d08a66                      
#   hselx             integral             1     'b1                             
#   hburst            string               5     INCR4                           
#   hmastlock         integral             1     'h0                             
#   hprot             string               32    PRIVILEGED_NONSECURE_INSTRUCTION
#   hsize             string               8     HALFWORD                        
#   hnonsec           integral             1     'h0                             
#   hexcl             integral             1     'h0                             
#   hmaster           integral             1     'd0                             
#   htrans            string               6     NONSEQ                          
#   hwrite            string               5     WRITE                           
#   hreadyout         integral             1     'h1                             
#   hresp             string               0     ""                              
#   hexokay           integral             1     'h0                             
#   hready            integral             1     'h0                             
#   choosePacketData  integral             1     'd0                             
# -------------------------------------------------------------------------------
# 
# UVM_INFO ../../src/hvlTop/slaveAgent/AhbSlaveCoverage.sv(61) @ 90: uvm_test_top.ahbEnvironment.ahbSlaveAgent[0].ahbSlaveCoverage [AhbSlaveCoverage] AHB SLAVE COVERAGE
# UVM_INFO ../../src/hvlTop/environment/AhbScoreboard.sv(78) @ 90: uvm_test_top.ahbEnvironment.ahbScoreboard [AhbScoreboard] after calling master's analysis fifo get method
# UVM_INFO ../../src/hvlTop/environment/AhbScoreboard.sv(88) @ 90: uvm_test_top.ahbEnvironment.ahbScoreboard [AhbScoreboard] after calling slave's analysis fifo get method
# UVM_INFO ../../src/hvlTop/environment/AhbScoreboard.sv(94) @ 90: uvm_test_top.ahbEnvironment.ahbScoreboard [AhbScoreboard] --
# -----------------------------------------------SCOREBOARD COMPARISIONS--------------------------------------------------
# UVM_INFO ../../src/hvlTop/environment/AhbScoreboard.sv(97) @ 90: uvm_test_top.ahbEnvironment.ahbScoreboard [AhbScoreboard] ahb HWDATA from master and slave is equal
# UVM_INFO ../../src/hvlTop/environment/AhbScoreboard.sv(99) @ 90: uvm_test_top.ahbEnvironment.ahbScoreboard [SB  HWDAT MATCHED] Master HWDATA =  and Slave HWDATA = 
# UVM_INFO ../../src/hvlTop/environment/AhbScoreboard.sv(112) @ 90: uvm_test_top.ahbEnvironment.ahbScoreboard [AhbScoreboard] ahb HADDR from master and slave is equal
# UVM_INFO ../../src/hvlTop/environment/AhbScoreboard.sv(114) @ 90: uvm_test_top.ahbEnvironment.ahbScoreboard [SB HADDR MATCH] Master HADDR = 'hf3d08a66 and Slave HADDR = 'hf3d08a66
# UVM_INFO ../../src/hvlTop/environment/AhbScoreboard.sv(126) @ 90: uvm_test_top.ahbEnvironment.ahbScoreboard [AhbScoreboard] ahb HWRITE from master and slave is equal
# UVM_INFO ../../src/hvlTop/environment/AhbScoreboard.sv(128) @ 90: uvm_test_top.ahbEnvironment.ahbScoreboard [SB HWRITE MATCH] Master HWRITE = 'h1 and Slave hwrite = 'h1
# UVM_INFO ../../src/hvlTop/environment/AhbScoreboard.sv(166) @ 90: uvm_test_top.ahbEnvironment.ahbScoreboard [AhbScoreboard] --
# -----------------------------------------------END OF SCOREBOARD COMPARISIONS---------------------------------------
# ** Info: HADDR is aligned based on HSIZE
#    Time: 90 ns Started: 90 ns  Scope: HdlTop.ahbMasterAgentBFM.ahbMasterMonitorBFM.ahb_assert File: ../../src/hdlTop/masterAgentBFM/AhbMasterAssertion.sv Line: 57
# ** Info: HSIZE matches the data width supported by the slave!
#    Time: 90 ns Started: 90 ns  Scope: HdlTop.ahbMasterAgentBFM.ahbMasterMonitorBFM.ahb_assert File: ../../src/hdlTop/masterAgentBFM/AhbMasterAssertion.sv Line: 180
# ** Info: Valid burst type!
#    Time: 90 ns Started: 90 ns  Scope: HdlTop.ahbMasterAgentBFM.ahbMasterMonitorBFM.ahb_assert File: ../../src/hdlTop/masterAgentBFM/AhbMasterAssertion.sv Line: 189
# ** Info: Address Aligned with size
#    Time: 90 ns Started: 90 ns  Scope: HdlTop.ahbMasterAgentBFM.ahbMasterMonitorBFM.ahb_cover File: ../../src/hdlTop/masterAgentBFM/AhbMasterCoverProperty.sv Line: 58
# ** Info: Hwstrb is valid
#    Time: 90 ns Started: 90 ns  Scope: HdlTop.ahbMasterAgentBFM.ahbMasterMonitorBFM.ahb_cover File: ../../src/hdlTop/masterAgentBFM/AhbMasterCoverProperty.sv Line: 98
# ** Info: Hwstrb valid
#    Time: 90 ns Started: 90 ns  Scope: HdlTop.ahbMasterAgentBFM.ahbMasterMonitorBFM.ahb_assert File: ../../src/hdlTop/masterAgentBFM/AhbMasterAssertion.sv Line: 198
# ** Info: HTRANS is Valid
#    Time: 90 ns Started: 70 ns  Scope: HdlTop.ahbMasterAgentBFM.ahbMasterMonitorBFM.ahb_assert File: ../../src/hdlTop/masterAgentBFM/AhbMasterAssertion.sv Line: 47
# &&&&values inside master monitor proxy '{haddr:4090530408, hselx:1, hburst:INCR4, hmastlock:0, hprot:PRIVILEGED_NONSECURE_INSTRUCTION, hsize:HALFWORD, hnonsec:x, hexcl:x, hmaster:x, htrans:BUSY, hwdata:'{0, 0, 0, 0, 0, 0, 0, 0, 0, 0, 0, 0, 0, 0, 0, 0, 19951}, hwstrb:'{0, 0, 0, 0, 0, 0, 0, 0, 0, 0, 0, 0, 0, 0, 0, 0, 5}, hwrite:WRITE, hrdata:'{0, 0, 0, 0, 0, 0, 0, 0, 0, 0, 0, 0, 0, 0, 0, 0, x}, hreadyout:x, hresp:OKAY, hexokay:x, hready:1, noOfWaitStates:0, busyControl:0}&&&
# UVM_INFO ../../src/hvlTop/masterAgent/AhbMasterMonitorProxy.sv(58) @ 110: uvm_test_top.ahbEnvironment.ahbMasterAgent[0].ahbMasterMonitorProxy [AhbMasterMonitorProxy] Sending packet via analysis_port: , 
#  --------------------------------------------------------------------------------------
# Name                      Type                  Size  Value                           
# --------------------------------------------------------------------------------------
# ahbMasterPacket           AhbMasterTransaction  -     @1224                           
#   haddr                   integral              32    'hf3d08a68                      
#   hselx                   integral              1     'b1                             
#   hburst                  string                5     INCR4                           
#   hmastlock               integral              1     'h0                             
#   hprot                   string                32    PRIVILEGED_NONSECURE_INSTRUCTION
#   hsize                   string                8     HALFWORD                        
#   hnonsec                 integral              1     'h0                             
#   hexcl                   integral              1     'h0                             
#   hmaster                 integral              1     'd0                             
#   htrans                  string                4     BUSY                            
#   hwrite                  string                5     WRITE                           
#   hreadyout               integral              1     'h0                             
#   hresp                   string                4     OKAY                            
#   hexokay                 integral              1     'h0                             
#   hready                  integral              1     'h1                             
#   noOfwaitStatesDetected  integral              32    'h0                             
#   hwdata[0]               integral              32    'h4def                          
#   hwstrb[0]               integral              4     'b101                           
# --------------------------------------------------------------------------------------
# 
# UVM_INFO ../../src/hvlTop/masterAgent/AhbMasterCoverage.sv(180) @ 110: uvm_test_top.ahbEnvironment.ahbMasterAgent[0].ahbMasterCoverage [AhbMasterCoverage] Before calling SAMPLE METHOD
# UVM_INFO ../../src/hvlTop/masterAgent/AhbMasterCoverage.sv(182) @ 110: uvm_test_top.ahbEnvironment.ahbMasterAgent[0].ahbMasterCoverage [AhbMasterCoverage] After calling SAMPLE METHOD
# UVM_INFO ../../src/hdlTop/slaveAgentBFM/AhbSlaveDriverBFM.sv(121) @ 110: reporter [AHB_SLAVE_DRIVER_BFM] Busy = 0
# &&&&values inside monitor proxy '{haddr:4090530408, hselx:1, hburst:INCR4, hmastlock:x, hprot:PRIVILEGED_NONSECURE_INSTRUCTION, hsize:HALFWORD, hnonsec:0, hexcl:x, hmaster:x, htrans:BUSY, hwdata:'{0, 0, 0, 0, 0, 0, 0, 0, 0, 0, 0, 0, 0, 0, 0, 0, 19951}, hwstrb:'{0, 0, 0, 0, 0, 0, 0, 0, 0, 0, 0, 0, 0, 0, 0, 0, 5}, hwrite:WRITE, hrdata:'{0, 0, 0, 0, 0, 0, 0, 0, 0, 0, 0, 0, 0, 0, 0, 0, x}, hreadyout:1, hresp:OKAY, hexokay:x, hready:x, noOfWaitStates:0, busyControl:0}&&&
# UVM_INFO ../../src/hvlTop/slaveAgent/AhbSlaveSequenceItemConverter.sv(149) @ 110: reporter [ahbSlaveSequeceItemconverterClass] After randomizing noofwaitstate = 00000000000000000000000000000000
# UVM_INFO ../../src/hvlTop/slaveAgent/AhbSlaveSequenceItemConverter.sv(177) @ 110: reporter [ahbSlaveSequeceItemconverterClass] -------------------------------------------------------------
# UVM_INFO ../../src/hvlTop/slaveAgent/AhbSlaveMonitorProxy.sv(57) @ 110: uvm_test_top.ahbEnvironment.ahbSlaveAgent[0].ahbSlaveMonitorProxy [AhbSlaveMonitorProxy] Sending packet via analysis_port: , 
#  -------------------------------------------------------------------------------
# Name                Type                 Size  Value                           
# -------------------------------------------------------------------------------
# slave Packet        AhbSlaveTransaction  -     @1228                           
#   haddr             integral             32    'hf3d08a68                      
#   hselx             integral             1     'b1                             
#   hburst            string               5     INCR4                           
#   hmastlock         integral             1     'h0                             
#   hprot             string               32    PRIVILEGED_NONSECURE_INSTRUCTION
#   hsize             string               8     HALFWORD                        
#   hnonsec           integral             1     'h0                             
#   hexcl             integral             1     'h0                             
#   hmaster           integral             1     'd0                             
#   htrans            string               4     BUSY                            
#   hwrite            string               5     WRITE                           
#   hreadyout         integral             1     'h1                             
#   hresp             string               4     OKAY                            
#   hexokay           integral             1     'h0                             
#   hready            integral             1     'h0                             
#   choosePacketData  integral             1     'd0                             
#   hwdata[0]         integral             32    'h4def                          
#   hwstrb[0]         integral             4     'b101                           
# -------------------------------------------------------------------------------
# 
# UVM_INFO ../../src/hvlTop/slaveAgent/AhbSlaveCoverage.sv(61) @ 110: uvm_test_top.ahbEnvironment.ahbSlaveAgent[0].ahbSlaveCoverage [AhbSlaveCoverage] AHB SLAVE COVERAGE
# UVM_INFO ../../src/hvlTop/environment/AhbScoreboard.sv(78) @ 110: uvm_test_top.ahbEnvironment.ahbScoreboard [AhbScoreboard] after calling master's analysis fifo get method
# UVM_INFO ../../src/hvlTop/environment/AhbScoreboard.sv(88) @ 110: uvm_test_top.ahbEnvironment.ahbScoreboard [AhbScoreboard] after calling slave's analysis fifo get method
# UVM_INFO ../../src/hvlTop/environment/AhbScoreboard.sv(94) @ 110: uvm_test_top.ahbEnvironment.ahbScoreboard [AhbScoreboard] --
# -----------------------------------------------SCOREBOARD COMPARISIONS--------------------------------------------------
# UVM_INFO ../../src/hvlTop/environment/AhbScoreboard.sv(97) @ 110: uvm_test_top.ahbEnvironment.ahbScoreboard [AhbScoreboard] ahb HWDATA from master and slave is equal
# UVM_INFO ../../src/hvlTop/environment/AhbScoreboard.sv(99) @ 110: uvm_test_top.ahbEnvironment.ahbScoreboard [SB  HWDAT MATCHED] Master HWDATA = 19951 and Slave HWDATA = 19951
# UVM_INFO ../../src/hvlTop/environment/AhbScoreboard.sv(112) @ 110: uvm_test_top.ahbEnvironment.ahbScoreboard [AhbScoreboard] ahb HADDR from master and slave is equal
# UVM_INFO ../../src/hvlTop/environment/AhbScoreboard.sv(114) @ 110: uvm_test_top.ahbEnvironment.ahbScoreboard [SB HADDR MATCH] Master HADDR = 'hf3d08a68 and Slave HADDR = 'hf3d08a68
# UVM_INFO ../../src/hvlTop/environment/AhbScoreboard.sv(126) @ 110: uvm_test_top.ahbEnvironment.ahbScoreboard [AhbScoreboard] ahb HWRITE from master and slave is equal
# UVM_INFO ../../src/hvlTop/environment/AhbScoreboard.sv(128) @ 110: uvm_test_top.ahbEnvironment.ahbScoreboard [SB HWRITE MATCH] Master HWRITE = 'h1 and Slave hwrite = 'h1
# UVM_INFO ../../src/hvlTop/environment/AhbScoreboard.sv(166) @ 110: uvm_test_top.ahbEnvironment.ahbScoreboard [AhbScoreboard] --
# -----------------------------------------------END OF SCOREBOARD COMPARISIONS---------------------------------------
# ** Info: HSIZE matches the data width supported by the slave!
#    Time: 110 ns Started: 110 ns  Scope: HdlTop.ahbMasterAgentBFM.ahbMasterMonitorBFM.ahb_assert File: ../../src/hdlTop/masterAgentBFM/AhbMasterAssertion.sv Line: 180
# ** Info: Valid burst type!
#    Time: 110 ns Started: 110 ns  Scope: HdlTop.ahbMasterAgentBFM.ahbMasterMonitorBFM.ahb_assert File: ../../src/hdlTop/masterAgentBFM/AhbMasterAssertion.sv Line: 189
# ** Info: HRESP is OKAY for valid transactions!
#    Time: 110 ns Started: 90 ns  Scope: HdlTop.ahbSlaveAgentBFM.ahbSlaveMonitorBFM.ahb_assert File: ../../src/hdlTop/slaveAgentBFM/AhbSlaveAssertion.sv Line: 50
# ** Info: HWDATA is Valid When HWRITE IS HIGH
#    Time: 110 ns Started: 90 ns  Scope: HdlTop.ahbMasterAgentBFM.ahbMasterMonitorBFM.ahb_assert File: ../../src/hdlTop/masterAgentBFM/AhbMasterAssertion.sv Line: 38
# ** Info: Valid Write Transfer
#    Time: 110 ns Started: 90 ns  Scope: HdlTop.ahbMasterAgentBFM.ahbMasterMonitorBFM.ahb_cover File: ../../src/hdlTop/masterAgentBFM/AhbMasterCoverProperty.sv Line: 49
# ** Info: Address Aligned with size
#    Time: 110 ns Started: 110 ns  Scope: HdlTop.ahbMasterAgentBFM.ahbMasterMonitorBFM.ahb_cover File: ../../src/hdlTop/masterAgentBFM/AhbMasterCoverProperty.sv Line: 58
# ** Info: HREADYOUT is high during valid transactions!
#    Time: 110 ns Started: 90 ns  Scope: HdlTop.ahbSlaveAgentBFM.ahbSlaveMonitorBFM.ahb_assert File: ../../src/hdlTop/slaveAgentBFM/AhbSlaveAssertion.sv Line: 31
# ** Info: HADDR is aligned based on HSIZE
#    Time: 110 ns Started: 110 ns  Scope: HdlTop.ahbMasterAgentBFM.ahbMasterMonitorBFM.ahb_assert File: ../../src/hdlTop/masterAgentBFM/AhbMasterAssertion.sv Line: 57
# ** Info: Hwstrb valid
#    Time: 110 ns Started: 110 ns  Scope: HdlTop.ahbMasterAgentBFM.ahbMasterMonitorBFM.ahb_assert File: ../../src/hdlTop/masterAgentBFM/AhbMasterAssertion.sv Line: 198
# ** Info: HTRANS is Valid
#    Time: 110 ns Started: 90 ns  Scope: HdlTop.ahbMasterAgentBFM.ahbMasterMonitorBFM.ahb_assert File: ../../src/hdlTop/masterAgentBFM/AhbMasterAssertion.sv Line: 47
# ** Info: Busy state has occuered
#    Time: 110 ns Started: 90 ns  Scope: HdlTop.ahbMasterAgentBFM.ahbMasterMonitorBFM.ahb_cover File: ../../src/hdlTop/masterAgentBFM/AhbMasterCoverProperty.sv Line: 74
# ** Info: Busy state has occuered
#    Time: 110 ns Started: 70 ns  Scope: HdlTop.ahbMasterAgentBFM.ahbMasterMonitorBFM.ahb_cover File: ../../src/hdlTop/masterAgentBFM/AhbMasterCoverProperty.sv Line: 74
# ** Info: Hresp is valid
#    Time: 110 ns Started: 90 ns  Scope: HdlTop.ahbSlaveAgentBFM.ahbSlaveMonitorBFM.ahb_cover File: ../../src/hdlTop/slaveAgentBFM/AhbSlaveCoverProperty.sv Line: 57
# ** Info: Hresp is valid
#    Time: 110 ns Started: 70 ns  Scope: HdlTop.ahbSlaveAgentBFM.ahbSlaveMonitorBFM.ahb_cover File: ../../src/hdlTop/slaveAgentBFM/AhbSlaveCoverProperty.sv Line: 57
# UVM_INFO ../../src/hdlTop/masterAgentBFM/AhbMasterDriverBFM.sv(136) @ 130: reporter [THOR] THOR1
# &&&&values inside master monitor proxy '{haddr:4090530408, hselx:1, hburst:INCR4, hmastlock:0, hprot:PRIVILEGED_NONSECURE_INSTRUCTION, hsize:HALFWORD, hnonsec:x, hexcl:x, hmaster:x, htrans:SEQ, hwdata:'{0, 0, 0, 0, 0, 0, 0, 0, 0, 0, 0, 0, 0, 0, 0, 0, 19951}, hwstrb:'{0, 0, 0, 0, 0, 0, 0, 0, 0, 0, 0, 0, 0, 0, 0, 0, 5}, hwrite:WRITE, hrdata:'{0, 0, 0, 0, 0, 0, 0, 0, 0, 0, 0, 0, 0, 0, 0, 0, x}, hreadyout:x, hresp:OKAY, hexokay:x, hready:1, noOfWaitStates:0, busyControl:0}&&&
# UVM_INFO ../../src/hvlTop/masterAgent/AhbMasterMonitorProxy.sv(58) @ 130: uvm_test_top.ahbEnvironment.ahbMasterAgent[0].ahbMasterMonitorProxy [AhbMasterMonitorProxy] Sending packet via analysis_port: , 
#  --------------------------------------------------------------------------------------
# Name                      Type                  Size  Value                           
# --------------------------------------------------------------------------------------
# ahbMasterPacket           AhbMasterTransaction  -     @1232                           
#   haddr                   integral              32    'hf3d08a68                      
#   hselx                   integral              1     'b1                             
#   hburst                  string                5     INCR4                           
#   hmastlock               integral              1     'h0                             
#   hprot                   string                32    PRIVILEGED_NONSECURE_INSTRUCTION
#   hsize                   string                8     HALFWORD                        
#   hnonsec                 integral              1     'h0                             
#   hexcl                   integral              1     'h0                             
#   hmaster                 integral              1     'd0                             
#   htrans                  string                3     SEQ                             
#   hwrite                  string                5     WRITE                           
#   hreadyout               integral              1     'h0                             
#   hresp                   string                4     OKAY                            
#   hexokay                 integral              1     'h0                             
#   hready                  integral              1     'h1                             
#   noOfwaitStatesDetected  integral              32    'h0                             
#   hwdata[0]               integral              32    'h4def                          
#   hwstrb[0]               integral              4     'b101                           
# --------------------------------------------------------------------------------------
# 
# UVM_INFO ../../src/hvlTop/masterAgent/AhbMasterCoverage.sv(180) @ 130: uvm_test_top.ahbEnvironment.ahbMasterAgent[0].ahbMasterCoverage [AhbMasterCoverage] Before calling SAMPLE METHOD
# UVM_INFO ../../src/hvlTop/masterAgent/AhbMasterCoverage.sv(182) @ 130: uvm_test_top.ahbEnvironment.ahbMasterAgent[0].ahbMasterCoverage [AhbMasterCoverage] After calling SAMPLE METHOD
# UVM_INFO ../../src/hdlTop/slaveAgentBFM/AhbSlaveDriverBFM.sv(121) @ 130: reporter [AHB_SLAVE_DRIVER_BFM] Busy = 0
# &&&&values inside monitor proxy '{haddr:4090530408, hselx:1, hburst:INCR4, hmastlock:x, hprot:PRIVILEGED_NONSECURE_INSTRUCTION, hsize:HALFWORD, hnonsec:0, hexcl:x, hmaster:x, htrans:SEQ, hwdata:'{0, 0, 0, 0, 0, 0, 0, 0, 0, 0, 0, 0, 0, 0, 0, 0, 19951}, hwstrb:'{0, 0, 0, 0, 0, 0, 0, 0, 0, 0, 0, 0, 0, 0, 0, 0, 5}, hwrite:WRITE, hrdata:'{0, 0, 0, 0, 0, 0, 0, 0, 0, 0, 0, 0, 0, 0, 0, 0, x}, hreadyout:1, hresp:OKAY, hexokay:x, hready:x, noOfWaitStates:0, busyControl:0}&&&
# UVM_INFO ../../src/hvlTop/slaveAgent/AhbSlaveSequenceItemConverter.sv(149) @ 130: reporter [ahbSlaveSequeceItemconverterClass] After randomizing noofwaitstate = 00000000000000000000000000000000
# UVM_INFO ../../src/hvlTop/slaveAgent/AhbSlaveSequenceItemConverter.sv(177) @ 130: reporter [ahbSlaveSequeceItemconverterClass] -------------------------------------------------------------
# UVM_INFO ../../src/hvlTop/slaveAgent/AhbSlaveMonitorProxy.sv(57) @ 130: uvm_test_top.ahbEnvironment.ahbSlaveAgent[0].ahbSlaveMonitorProxy [AhbSlaveMonitorProxy] Sending packet via analysis_port: , 
#  -------------------------------------------------------------------------------
# Name                Type                 Size  Value                           
# -------------------------------------------------------------------------------
# slave Packet        AhbSlaveTransaction  -     @1236                           
#   haddr             integral             32    'hf3d08a68                      
#   hselx             integral             1     'b1                             
#   hburst            string               5     INCR4                           
#   hmastlock         integral             1     'h0                             
#   hprot             string               32    PRIVILEGED_NONSECURE_INSTRUCTION
#   hsize             string               8     HALFWORD                        
#   hnonsec           integral             1     'h0                             
#   hexcl             integral             1     'h0                             
#   hmaster           integral             1     'd0                             
#   htrans            string               3     SEQ                             
#   hwrite            string               5     WRITE                           
#   hreadyout         integral             1     'h1                             
#   hresp             string               4     OKAY                            
#   hexokay           integral             1     'h0                             
#   hready            integral             1     'h0                             
#   choosePacketData  integral             1     'd0                             
#   hwdata[0]         integral             32    'h4def                          
#   hwstrb[0]         integral             4     'b101                           
# -------------------------------------------------------------------------------
# 
# UVM_INFO ../../src/hvlTop/slaveAgent/AhbSlaveCoverage.sv(61) @ 130: uvm_test_top.ahbEnvironment.ahbSlaveAgent[0].ahbSlaveCoverage [AhbSlaveCoverage] AHB SLAVE COVERAGE
# UVM_INFO ../../src/hvlTop/environment/AhbScoreboard.sv(78) @ 130: uvm_test_top.ahbEnvironment.ahbScoreboard [AhbScoreboard] after calling master's analysis fifo get method
# UVM_INFO ../../src/hvlTop/environment/AhbScoreboard.sv(88) @ 130: uvm_test_top.ahbEnvironment.ahbScoreboard [AhbScoreboard] after calling slave's analysis fifo get method
# UVM_INFO ../../src/hvlTop/environment/AhbScoreboard.sv(94) @ 130: uvm_test_top.ahbEnvironment.ahbScoreboard [AhbScoreboard] --
# -----------------------------------------------SCOREBOARD COMPARISIONS--------------------------------------------------
# UVM_INFO ../../src/hvlTop/environment/AhbScoreboard.sv(97) @ 130: uvm_test_top.ahbEnvironment.ahbScoreboard [AhbScoreboard] ahb HWDATA from master and slave is equal
# UVM_INFO ../../src/hvlTop/environment/AhbScoreboard.sv(99) @ 130: uvm_test_top.ahbEnvironment.ahbScoreboard [SB  HWDAT MATCHED] Master HWDATA = 19951 and Slave HWDATA = 19951
# UVM_INFO ../../src/hvlTop/environment/AhbScoreboard.sv(112) @ 130: uvm_test_top.ahbEnvironment.ahbScoreboard [AhbScoreboard] ahb HADDR from master and slave is equal
# UVM_INFO ../../src/hvlTop/environment/AhbScoreboard.sv(114) @ 130: uvm_test_top.ahbEnvironment.ahbScoreboard [SB HADDR MATCH] Master HADDR = 'hf3d08a68 and Slave HADDR = 'hf3d08a68
# UVM_INFO ../../src/hvlTop/environment/AhbScoreboard.sv(126) @ 130: uvm_test_top.ahbEnvironment.ahbScoreboard [AhbScoreboard] ahb HWRITE from master and slave is equal
# UVM_INFO ../../src/hvlTop/environment/AhbScoreboard.sv(128) @ 130: uvm_test_top.ahbEnvironment.ahbScoreboard [SB HWRITE MATCH] Master HWRITE = 'h1 and Slave hwrite = 'h1
# UVM_INFO ../../src/hvlTop/environment/AhbScoreboard.sv(166) @ 130: uvm_test_top.ahbEnvironment.ahbScoreboard [AhbScoreboard] --
# -----------------------------------------------END OF SCOREBOARD COMPARISIONS---------------------------------------
# ** Info: Valid burst type!
#    Time: 130 ns Started: 130 ns  Scope: HdlTop.ahbMasterAgentBFM.ahbMasterMonitorBFM.ahb_assert File: ../../src/hdlTop/masterAgentBFM/AhbMasterAssertion.sv Line: 189
# ** Info: HRESP is OKAY for valid transactions!
#    Time: 130 ns Started: 110 ns  Scope: HdlTop.ahbSlaveAgentBFM.ahbSlaveMonitorBFM.ahb_assert File: ../../src/hdlTop/slaveAgentBFM/AhbSlaveAssertion.sv Line: 50
# ** Info: HWDATA is Valid When HWRITE IS HIGH
#    Time: 130 ns Started: 110 ns  Scope: HdlTop.ahbMasterAgentBFM.ahbMasterMonitorBFM.ahb_assert File: ../../src/hdlTop/masterAgentBFM/AhbMasterAssertion.sv Line: 38
# ** Info: Address Aligned with size
#    Time: 130 ns Started: 130 ns  Scope: HdlTop.ahbMasterAgentBFM.ahbMasterMonitorBFM.ahb_cover File: ../../src/hdlTop/masterAgentBFM/AhbMasterCoverProperty.sv Line: 58
# ** Info: HREADYOUT is high during valid transactions!
#    Time: 130 ns Started: 110 ns  Scope: HdlTop.ahbSlaveAgentBFM.ahbSlaveMonitorBFM.ahb_assert File: ../../src/hdlTop/slaveAgentBFM/AhbSlaveAssertion.sv Line: 31
# ** Info: HSIZE matches the data width supported by the slave!
#    Time: 130 ns Started: 130 ns  Scope: HdlTop.ahbMasterAgentBFM.ahbMasterMonitorBFM.ahb_assert File: ../../src/hdlTop/masterAgentBFM/AhbMasterAssertion.sv Line: 180
# ** Info: HADDR is aligned based on HSIZE
#    Time: 130 ns Started: 130 ns  Scope: HdlTop.ahbMasterAgentBFM.ahbMasterMonitorBFM.ahb_assert File: ../../src/hdlTop/masterAgentBFM/AhbMasterAssertion.sv Line: 57
# ** Info: Hwstrb valid
#    Time: 130 ns Started: 130 ns  Scope: HdlTop.ahbMasterAgentBFM.ahbMasterMonitorBFM.ahb_assert File: ../../src/hdlTop/masterAgentBFM/AhbMasterAssertion.sv Line: 198
# ** Info: Hresp is valid
#    Time: 130 ns Started: 110 ns  Scope: HdlTop.ahbSlaveAgentBFM.ahbSlaveMonitorBFM.ahb_cover File: ../../src/hdlTop/slaveAgentBFM/AhbSlaveCoverProperty.sv Line: 57
# UVM_INFO ../../src/hdlTop/masterAgentBFM/AhbMasterDriverBFM.sv(136) @ 150: reporter [THOR] THOR1
# &&&&values inside master monitor proxy '{haddr:4090530410, hselx:1, hburst:INCR4, hmastlock:0, hprot:PRIVILEGED_NONSECURE_INSTRUCTION, hsize:HALFWORD, hnonsec:x, hexcl:x, hmaster:x, htrans:SEQ, hwdata:'{0, 0, 0, 0, 0, 0, 0, 0, 0, 0, 0, 0, 0, 0, 0, 0, 4784371}, hwstrb:'{0, 0, 0, 0, 0, 0, 0, 0, 0, 0, 0, 0, 0, 0, 0, 0, 5}, hwrite:WRITE, hrdata:'{0, 0, 0, 0, 0, 0, 0, 0, 0, 0, 0, 0, 0, 0, 0, 0, x}, hreadyout:x, hresp:OKAY, hexokay:x, hready:1, noOfWaitStates:0, busyControl:0}&&&
# UVM_INFO ../../src/hvlTop/masterAgent/AhbMasterMonitorProxy.sv(58) @ 150: uvm_test_top.ahbEnvironment.ahbMasterAgent[0].ahbMasterMonitorProxy [AhbMasterMonitorProxy] Sending packet via analysis_port: , 
#  --------------------------------------------------------------------------------------
# Name                      Type                  Size  Value                           
# --------------------------------------------------------------------------------------
# ahbMasterPacket           AhbMasterTransaction  -     @1240                           
#   haddr                   integral              32    'hf3d08a6a                      
#   hselx                   integral              1     'b1                             
#   hburst                  string                5     INCR4                           
#   hmastlock               integral              1     'h0                             
#   hprot                   string                32    PRIVILEGED_NONSECURE_INSTRUCTION
#   hsize                   string                8     HALFWORD                        
#   hnonsec                 integral              1     'h0                             
#   hexcl                   integral              1     'h0                             
#   hmaster                 integral              1     'd0                             
#   htrans                  string                3     SEQ                             
#   hwrite                  string                5     WRITE                           
#   hreadyout               integral              1     'h0                             
#   hresp                   string                4     OKAY                            
#   hexokay                 integral              1     'h0                             
#   hready                  integral              1     'h1                             
#   noOfwaitStatesDetected  integral              32    'h0                             
#   hwdata[0]               integral              32    'h4900f3                        
#   hwstrb[0]               integral              4     'b101                           
# --------------------------------------------------------------------------------------
# 
# UVM_INFO ../../src/hvlTop/masterAgent/AhbMasterCoverage.sv(180) @ 150: uvm_test_top.ahbEnvironment.ahbMasterAgent[0].ahbMasterCoverage [AhbMasterCoverage] Before calling SAMPLE METHOD
# UVM_INFO ../../src/hvlTop/masterAgent/AhbMasterCoverage.sv(182) @ 150: uvm_test_top.ahbEnvironment.ahbMasterAgent[0].ahbMasterCoverage [AhbMasterCoverage] After calling SAMPLE METHOD
# UVM_INFO ../../src/hvlTop/slaveAgent/AhbSlaveSequenceItemConverter.sv(149) @ 150: reporter [ahbSlaveSequeceItemconverterClass] After randomizing noofwaitstate = 00000000000000000000000000000000
# ** Warning: (vsim-8233) ../../src/hvlTop/slaveAgent/AhbSlaveSequenceItemConverter.sv(153): Index 2 into empty array is out of bounds.
#    Time: 150 ns  Iteration: 1  Region: /uvm_pkg::uvm_task_phase::execute
# ** Warning: (vsim-8233) ../../src/hvlTop/slaveAgent/AhbSlaveSequenceItemConverter.sv(153): Index 1 into empty array is out of bounds.
#    Time: 150 ns  Iteration: 1  Region: /uvm_pkg::uvm_task_phase::execute
# ** Warning: (vsim-8233) ../../src/hvlTop/slaveAgent/AhbSlaveSequenceItemConverter.sv(160): Index 2 into empty array is out of bounds.
#    Time: 150 ns  Iteration: 1  Region: /uvm_pkg::uvm_task_phase::execute
# ** Warning: (vsim-8233) ../../src/hvlTop/slaveAgent/AhbSlaveSequenceItemConverter.sv(160): Index 1 into empty array is out of bounds.
#    Time: 150 ns  Iteration: 1  Region: /uvm_pkg::uvm_task_phase::execute
# UVM_INFO ../../src/hvlTop/slaveAgent/AhbSlaveSequenceItemConverter.sv(177) @ 150: reporter [ahbSlaveSequeceItemconverterClass] -------------------------------------------------------------
# &&&&values inside monitor proxy '{haddr:4090530410, hselx:1, hburst:INCR4, hmastlock:x, hprot:PRIVILEGED_NONSECURE_INSTRUCTION, hsize:HALFWORD, hnonsec:0, hexcl:x, hmaster:x, htrans:SEQ, hwdata:'{0, 0, 0, 0, 0, 0, 0, 0, 0, 0, 0, 0, 0, 0, 0, 0, 4784371}, hwstrb:'{0, 0, 0, 0, 0, 0, 0, 0, 0, 0, 0, 0, 0, 0, 0, 0, 5}, hwrite:WRITE, hrdata:'{0, 0, 0, 0, 0, 0, 0, 0, 0, 0, 0, 0, 0, 0, 0, 0, x}, hreadyout:1, hresp:OKAY, hexokay:x, hready:x, noOfWaitStates:0, busyControl:0}&&&
# UVM_INFO ../../src/hvlTop/slaveAgent/AhbSlaveSequenceItemConverter.sv(149) @ 150: reporter [ahbSlaveSequeceItemconverterClass] After randomizing noofwaitstate = 00000000000000000000000000000000
# UVM_INFO ../../src/hvlTop/slaveAgent/AhbSlaveSequenceItemConverter.sv(177) @ 150: reporter [ahbSlaveSequeceItemconverterClass] -------------------------------------------------------------
# UVM_INFO ../../src/hvlTop/slaveAgent/AhbSlaveMonitorProxy.sv(57) @ 150: uvm_test_top.ahbEnvironment.ahbSlaveAgent[0].ahbSlaveMonitorProxy [AhbSlaveMonitorProxy] Sending packet via analysis_port: , 
#  -------------------------------------------------------------------------------
# Name                Type                 Size  Value                           
# -------------------------------------------------------------------------------
# slave Packet        AhbSlaveTransaction  -     @1244                           
#   haddr             integral             32    'hf3d08a6a                      
#   hselx             integral             1     'b1                             
#   hburst            string               5     INCR4                           
#   hmastlock         integral             1     'h0                             
#   hprot             string               32    PRIVILEGED_NONSECURE_INSTRUCTION
#   hsize             string               8     HALFWORD                        
#   hnonsec           integral             1     'h0                             
#   hexcl             integral             1     'h0                             
#   hmaster           integral             1     'd0                             
#   htrans            string               3     SEQ                             
#   hwrite            string               5     WRITE                           
#   hreadyout         integral             1     'h1                             
#   hresp             string               4     OKAY                            
#   hexokay           integral             1     'h0                             
#   hready            integral             1     'h0                             
#   choosePacketData  integral             1     'd0                             
#   hwdata[0]         integral             32    'h4900f3                        
#   hwstrb[0]         integral             4     'b101                           
# -------------------------------------------------------------------------------
# 
# UVM_INFO ../../src/hvlTop/slaveAgent/AhbSlaveCoverage.sv(61) @ 150: uvm_test_top.ahbEnvironment.ahbSlaveAgent[0].ahbSlaveCoverage [AhbSlaveCoverage] AHB SLAVE COVERAGE
# UVM_INFO ../../src/hvlTop/environment/AhbScoreboard.sv(78) @ 150: uvm_test_top.ahbEnvironment.ahbScoreboard [AhbScoreboard] after calling master's analysis fifo get method
# UVM_INFO ../../src/hvlTop/environment/AhbScoreboard.sv(88) @ 150: uvm_test_top.ahbEnvironment.ahbScoreboard [AhbScoreboard] after calling slave's analysis fifo get method
# UVM_INFO ../../src/hvlTop/environment/AhbScoreboard.sv(94) @ 150: uvm_test_top.ahbEnvironment.ahbScoreboard [AhbScoreboard] --
# -----------------------------------------------SCOREBOARD COMPARISIONS--------------------------------------------------
# UVM_INFO ../../src/hvlTop/environment/AhbScoreboard.sv(97) @ 150: uvm_test_top.ahbEnvironment.ahbScoreboard [AhbScoreboard] ahb HWDATA from master and slave is equal
# UVM_INFO ../../src/hvlTop/environment/AhbScoreboard.sv(99) @ 150: uvm_test_top.ahbEnvironment.ahbScoreboard [SB  HWDAT MATCHED] Master HWDATA = 4784371 and Slave HWDATA = 4784371
# UVM_INFO ../../src/hvlTop/environment/AhbScoreboard.sv(112) @ 150: uvm_test_top.ahbEnvironment.ahbScoreboard [AhbScoreboard] ahb HADDR from master and slave is equal
# UVM_INFO ../../src/hvlTop/environment/AhbScoreboard.sv(114) @ 150: uvm_test_top.ahbEnvironment.ahbScoreboard [SB HADDR MATCH] Master HADDR = 'hf3d08a6a and Slave HADDR = 'hf3d08a6a
# UVM_INFO ../../src/hvlTop/environment/AhbScoreboard.sv(126) @ 150: uvm_test_top.ahbEnvironment.ahbScoreboard [AhbScoreboard] ahb HWRITE from master and slave is equal
# UVM_INFO ../../src/hvlTop/environment/AhbScoreboard.sv(128) @ 150: uvm_test_top.ahbEnvironment.ahbScoreboard [SB HWRITE MATCH] Master HWRITE = 'h1 and Slave hwrite = 'h1
# UVM_INFO ../../src/hvlTop/environment/AhbScoreboard.sv(166) @ 150: uvm_test_top.ahbEnvironment.ahbScoreboard [AhbScoreboard] --
# -----------------------------------------------END OF SCOREBOARD COMPARISIONS---------------------------------------
# ---------------------------------------------------------
# Name                Type                 Size  Value     
# ---------------------------------------------------------
# req                 AhbSlaveTransaction  -     @1249     
#   haddr             integral             32    'h0       
#   hselx             integral             1     'b0       
#   hburst            string               0     ""        
#   hmastlock         integral             1     'h0       
#   hprot             string               0     ""        
#   hsize             string               0     ""        
#   hnonsec           integral             1     'h0       
#   hexcl             integral             1     'h0       
#   hmaster           integral             1     'd0       
#   htrans            string               0     ""        
#   hwrite            string               4     READ      
#   hreadyout         integral             1     'h0       
#   hresp             string               0     ""        
#   hexokay           integral             1     'h0       
#   hready            integral             1     'h0       
#   choosePacketData  integral             1     'd0       
#   hrdata[0]         integral             32    'h8f415187
#   hrdata[1]         integral             32    'hf835ca52
#   hrdata[2]         integral             32    'h2076fd80
#   hrdata[3]         integral             32    'h45780944
#   hrdata[4]         integral             32    'h78732a64
#   hrdata[5]         integral             32    'he2c8358a
#   hrdata[6]         integral             32    'h5102c141
#   hrdata[7]         integral             32    'h536f8077
#   hrdata[8]         integral             32    'he78071a4
#   hrdata[9]         integral             32    'hbf18df77
#   hrdata[10]        integral             32    'hbc75b271
#   hrdata[11]        integral             32    'h5b46feb5
#   hrdata[12]        integral             32    'h7d840944
#   hrdata[13]        integral             32    'hfc27339d
#   hrdata[14]        integral             32    'h7a6927f5
#   hrdata[15]        integral             32    'h655a9b37
# ---------------------------------------------------------
# UVM_INFO ../../src/hvlTop/slaveAgent/AhbSlaveSequenceItemConverter.sv(65) @ 150: reporter [ahbSlaveSequeceItemconverterClass] After randomizing noofwaitstate = 00000000000000000000000000000000
# UVM_INFO ../../src/hvlTop/slaveAgent/AhbSlaveSequenceItemConverter.sv(95) @ 150: reporter [ahbSlaveSequeceItemconverterClass] -------------------------------------------------------------
# UVM_INFO ../../src/hdlTop/slaveAgentBFM/AhbSlaveDriverBFM.sv(52) @ 150: reporter [AHB_SLAVE_DRIVER_BFM] DRIVE TO BFM TASK
# UVM_INFO ../../src/hdlTop/slaveAgentBFM/AhbSlaveDriverBFM.sv(60) @ 150: reporter [AHB_SLAVE_DRIVER_BFM] AFTERHSELASSERTED HTRANSFER = 3
# UVM_INFO ../../src/hdlTop/slaveAgentBFM/AhbSlaveDriverBFM.sv(100) @ 150: reporter [AHB_SLAVE_DRIVER_BFM] STARTEDBURSTTRANSFERTASK
# ** Info: Valid burst type!
#    Time: 150 ns Started: 150 ns  Scope: HdlTop.ahbMasterAgentBFM.ahbMasterMonitorBFM.ahb_assert File: ../../src/hdlTop/masterAgentBFM/AhbMasterAssertion.sv Line: 189
# ** Info: HRESP is OKAY for valid transactions!
#    Time: 150 ns Started: 130 ns  Scope: HdlTop.ahbSlaveAgentBFM.ahbSlaveMonitorBFM.ahb_assert File: ../../src/hdlTop/slaveAgentBFM/AhbSlaveAssertion.sv Line: 50
# ** Info: HWDATA is Valid When HWRITE IS HIGH
#    Time: 150 ns Started: 130 ns  Scope: HdlTop.ahbMasterAgentBFM.ahbMasterMonitorBFM.ahb_assert File: ../../src/hdlTop/masterAgentBFM/AhbMasterAssertion.sv Line: 38
# ** Info: Address Aligned with size
#    Time: 150 ns Started: 150 ns  Scope: HdlTop.ahbMasterAgentBFM.ahbMasterMonitorBFM.ahb_cover File: ../../src/hdlTop/masterAgentBFM/AhbMasterCoverProperty.sv Line: 58
# ** Info: HREADYOUT is high during valid transactions!
#    Time: 150 ns Started: 130 ns  Scope: HdlTop.ahbSlaveAgentBFM.ahbSlaveMonitorBFM.ahb_assert File: ../../src/hdlTop/slaveAgentBFM/AhbSlaveAssertion.sv Line: 31
# ** Info: HSIZE matches the data width supported by the slave!
#    Time: 150 ns Started: 150 ns  Scope: HdlTop.ahbMasterAgentBFM.ahbMasterMonitorBFM.ahb_assert File: ../../src/hdlTop/masterAgentBFM/AhbMasterAssertion.sv Line: 180
# ** Info: HADDR is aligned based on HSIZE
#    Time: 150 ns Started: 150 ns  Scope: HdlTop.ahbMasterAgentBFM.ahbMasterMonitorBFM.ahb_assert File: ../../src/hdlTop/masterAgentBFM/AhbMasterAssertion.sv Line: 57
# ** Info: Hwstrb valid
#    Time: 150 ns Started: 150 ns  Scope: HdlTop.ahbMasterAgentBFM.ahbMasterMonitorBFM.ahb_assert File: ../../src/hdlTop/masterAgentBFM/AhbMasterAssertion.sv Line: 198
# ** Info: HTRANS is Valid
#    Time: 150 ns Started: 130 ns  Scope: HdlTop.ahbMasterAgentBFM.ahbMasterMonitorBFM.ahb_assert File: ../../src/hdlTop/masterAgentBFM/AhbMasterAssertion.sv Line: 47
# ** Info: Valid Write Transfer
#    Time: 150 ns Started: 130 ns  Scope: HdlTop.ahbMasterAgentBFM.ahbMasterMonitorBFM.ahb_cover File: ../../src/hdlTop/masterAgentBFM/AhbMasterCoverProperty.sv Line: 49
# ** Info: Hresp is valid
#    Time: 150 ns Started: 130 ns  Scope: HdlTop.ahbSlaveAgentBFM.ahbSlaveMonitorBFM.ahb_cover File: ../../src/hdlTop/slaveAgentBFM/AhbSlaveCoverProperty.sv Line: 57
# &&&&values inside master monitor proxy '{haddr:4090530412, hselx:1, hburst:INCR4, hmastlock:0, hprot:PRIVILEGED_NONSECURE_INSTRUCTION, hsize:HALFWORD, hnonsec:x, hexcl:x, hmaster:x, htrans:SEQ, hwdata:'{0, 0, 0, 0, 0, 0, 0, 0, 0, 0, 0, 0, 0, 0, 0, 0, 8847545}, hwstrb:'{0, 0, 0, 0, 0, 0, 0, 0, 0, 0, 0, 0, 0, 0, 0, 0, 3}, hwrite:WRITE, hrdata:'{0, 0, 0, 0, 0, 0, 0, 0, 0, 0, 0, 0, 0, 0, 0, 0, x}, hreadyout:x, hresp:OKAY, hexokay:x, hready:1, noOfWaitStates:0, busyControl:0}&&&
# UVM_INFO ../../src/hvlTop/masterAgent/AhbMasterMonitorProxy.sv(58) @ 170: uvm_test_top.ahbEnvironment.ahbMasterAgent[0].ahbMasterMonitorProxy [AhbMasterMonitorProxy] Sending packet via analysis_port: , 
#  --------------------------------------------------------------------------------------
# Name                      Type                  Size  Value                           
# --------------------------------------------------------------------------------------
# ahbMasterPacket           AhbMasterTransaction  -     @1253                           
#   haddr                   integral              32    'hf3d08a6c                      
#   hselx                   integral              1     'b1                             
#   hburst                  string                5     INCR4                           
#   hmastlock               integral              1     'h0                             
#   hprot                   string                32    PRIVILEGED_NONSECURE_INSTRUCTION
#   hsize                   string                8     HALFWORD                        
#   hnonsec                 integral              1     'h0                             
#   hexcl                   integral              1     'h0                             
#   hmaster                 integral              1     'd0                             
#   htrans                  string                3     SEQ                             
#   hwrite                  string                5     WRITE                           
#   hreadyout               integral              1     'h0                             
#   hresp                   string                4     OKAY                            
#   hexokay                 integral              1     'h0                             
#   hready                  integral              1     'h1                             
#   noOfwaitStatesDetected  integral              32    'h0                             
#   hwdata[0]               integral              32    'h8700b9                        
#   hwstrb[0]               integral              4     'b11                            
# --------------------------------------------------------------------------------------
# 
# UVM_INFO ../../src/hvlTop/masterAgent/AhbMasterCoverage.sv(180) @ 170: uvm_test_top.ahbEnvironment.ahbMasterAgent[0].ahbMasterCoverage [AhbMasterCoverage] Before calling SAMPLE METHOD
# UVM_INFO ../../src/hvlTop/masterAgent/AhbMasterCoverage.sv(182) @ 170: uvm_test_top.ahbEnvironment.ahbMasterAgent[0].ahbMasterCoverage [AhbMasterCoverage] After calling SAMPLE METHOD
# UVM_INFO ../../src/hdlTop/slaveAgentBFM/AhbSlaveDriverBFM.sv(161) @ 170: reporter [AHB_SLAVE_DRIVER_BFM] Bus is now out of wait cycles
# UVM_INFO ../../src/hdlTop/slaveAgentBFM/AhbSlaveDriverBFM.sv(121) @ 170: reporter [AHB_SLAVE_DRIVER_BFM] Busy = 0
# &&&&values inside monitor proxy '{haddr:4090530412, hselx:1, hburst:INCR4, hmastlock:x, hprot:PRIVILEGED_NONSECURE_INSTRUCTION, hsize:HALFWORD, hnonsec:0, hexcl:x, hmaster:x, htrans:SEQ, hwdata:'{0, 0, 0, 0, 0, 0, 0, 0, 0, 0, 0, 0, 0, 0, 0, 0, 8847545}, hwstrb:'{0, 0, 0, 0, 0, 0, 0, 0, 0, 0, 0, 0, 0, 0, 0, 0, 3}, hwrite:WRITE, hrdata:'{0, 0, 0, 0, 0, 0, 0, 0, 0, 0, 0, 0, 0, 0, 0, 0, x}, hreadyout:1, hresp:OKAY, hexokay:x, hready:x, noOfWaitStates:0, busyControl:0}&&&
# UVM_INFO ../../src/hvlTop/slaveAgent/AhbSlaveSequenceItemConverter.sv(149) @ 170: reporter [ahbSlaveSequeceItemconverterClass] After randomizing noofwaitstate = 00000000000000000000000000000000
# UVM_INFO ../../src/hvlTop/slaveAgent/AhbSlaveSequenceItemConverter.sv(177) @ 170: reporter [ahbSlaveSequeceItemconverterClass] -------------------------------------------------------------
# UVM_INFO ../../src/hvlTop/slaveAgent/AhbSlaveMonitorProxy.sv(57) @ 170: uvm_test_top.ahbEnvironment.ahbSlaveAgent[0].ahbSlaveMonitorProxy [AhbSlaveMonitorProxy] Sending packet via analysis_port: , 
#  -------------------------------------------------------------------------------
# Name                Type                 Size  Value                           
# -------------------------------------------------------------------------------
# slave Packet        AhbSlaveTransaction  -     @1257                           
#   haddr             integral             32    'hf3d08a6c                      
#   hselx             integral             1     'b1                             
#   hburst            string               5     INCR4                           
#   hmastlock         integral             1     'h0                             
#   hprot             string               32    PRIVILEGED_NONSECURE_INSTRUCTION
#   hsize             string               8     HALFWORD                        
#   hnonsec           integral             1     'h0                             
#   hexcl             integral             1     'h0                             
#   hmaster           integral             1     'd0                             
#   htrans            string               3     SEQ                             
#   hwrite            string               5     WRITE                           
#   hreadyout         integral             1     'h1                             
#   hresp             string               4     OKAY                            
#   hexokay           integral             1     'h0                             
#   hready            integral             1     'h0                             
#   choosePacketData  integral             1     'd0                             
#   hwdata[0]         integral             32    'h8700b9                        
#   hwstrb[0]         integral             4     'b11                            
# -------------------------------------------------------------------------------
# 
# UVM_INFO ../../src/hvlTop/slaveAgent/AhbSlaveCoverage.sv(61) @ 170: uvm_test_top.ahbEnvironment.ahbSlaveAgent[0].ahbSlaveCoverage [AhbSlaveCoverage] AHB SLAVE COVERAGE
# UVM_INFO ../../src/hvlTop/environment/AhbScoreboard.sv(78) @ 170: uvm_test_top.ahbEnvironment.ahbScoreboard [AhbScoreboard] after calling master's analysis fifo get method
# UVM_INFO ../../src/hvlTop/environment/AhbScoreboard.sv(88) @ 170: uvm_test_top.ahbEnvironment.ahbScoreboard [AhbScoreboard] after calling slave's analysis fifo get method
# UVM_INFO ../../src/hvlTop/environment/AhbScoreboard.sv(94) @ 170: uvm_test_top.ahbEnvironment.ahbScoreboard [AhbScoreboard] --
# -----------------------------------------------SCOREBOARD COMPARISIONS--------------------------------------------------
# UVM_INFO ../../src/hvlTop/environment/AhbScoreboard.sv(97) @ 170: uvm_test_top.ahbEnvironment.ahbScoreboard [AhbScoreboard] ahb HWDATA from master and slave is equal
# UVM_INFO ../../src/hvlTop/environment/AhbScoreboard.sv(99) @ 170: uvm_test_top.ahbEnvironment.ahbScoreboard [SB  HWDAT MATCHED] Master HWDATA = 8847545 and Slave HWDATA = 8847545
# UVM_INFO ../../src/hvlTop/environment/AhbScoreboard.sv(112) @ 170: uvm_test_top.ahbEnvironment.ahbScoreboard [AhbScoreboard] ahb HADDR from master and slave is equal
# UVM_INFO ../../src/hvlTop/environment/AhbScoreboard.sv(114) @ 170: uvm_test_top.ahbEnvironment.ahbScoreboard [SB HADDR MATCH] Master HADDR = 'hf3d08a6c and Slave HADDR = 'hf3d08a6c
# UVM_INFO ../../src/hvlTop/environment/AhbScoreboard.sv(126) @ 170: uvm_test_top.ahbEnvironment.ahbScoreboard [AhbScoreboard] ahb HWRITE from master and slave is equal
# UVM_INFO ../../src/hvlTop/environment/AhbScoreboard.sv(128) @ 170: uvm_test_top.ahbEnvironment.ahbScoreboard [SB HWRITE MATCH] Master HWRITE = 'h1 and Slave hwrite = 'h1
# UVM_INFO ../../src/hvlTop/environment/AhbScoreboard.sv(166) @ 170: uvm_test_top.ahbEnvironment.ahbScoreboard [AhbScoreboard] --
# -----------------------------------------------END OF SCOREBOARD COMPARISIONS---------------------------------------
# ** Info: Valid burst type!
#    Time: 170 ns Started: 170 ns  Scope: HdlTop.ahbMasterAgentBFM.ahbMasterMonitorBFM.ahb_assert File: ../../src/hdlTop/masterAgentBFM/AhbMasterAssertion.sv Line: 189
# ** Info: HRESP is OKAY for valid transactions!
#    Time: 170 ns Started: 150 ns  Scope: HdlTop.ahbSlaveAgentBFM.ahbSlaveMonitorBFM.ahb_assert File: ../../src/hdlTop/slaveAgentBFM/AhbSlaveAssertion.sv Line: 50
# ** Info: HWDATA is Valid When HWRITE IS HIGH
#    Time: 170 ns Started: 150 ns  Scope: HdlTop.ahbMasterAgentBFM.ahbMasterMonitorBFM.ahb_assert File: ../../src/hdlTop/masterAgentBFM/AhbMasterAssertion.sv Line: 38
# ** Info: Address Aligned with size
#    Time: 170 ns Started: 170 ns  Scope: HdlTop.ahbMasterAgentBFM.ahbMasterMonitorBFM.ahb_cover File: ../../src/hdlTop/masterAgentBFM/AhbMasterCoverProperty.sv Line: 58
# ** Info: HREADYOUT is high during valid transactions!
#    Time: 170 ns Started: 150 ns  Scope: HdlTop.ahbSlaveAgentBFM.ahbSlaveMonitorBFM.ahb_assert File: ../../src/hdlTop/slaveAgentBFM/AhbSlaveAssertion.sv Line: 31
# ** Info: HSIZE matches the data width supported by the slave!
#    Time: 170 ns Started: 170 ns  Scope: HdlTop.ahbMasterAgentBFM.ahbMasterMonitorBFM.ahb_assert File: ../../src/hdlTop/masterAgentBFM/AhbMasterAssertion.sv Line: 180
# ** Info: HADDR is aligned based on HSIZE
#    Time: 170 ns Started: 170 ns  Scope: HdlTop.ahbMasterAgentBFM.ahbMasterMonitorBFM.ahb_assert File: ../../src/hdlTop/masterAgentBFM/AhbMasterAssertion.sv Line: 57
# ** Info: Hwstrb valid
#    Time: 170 ns Started: 170 ns  Scope: HdlTop.ahbMasterAgentBFM.ahbMasterMonitorBFM.ahb_assert File: ../../src/hdlTop/masterAgentBFM/AhbMasterAssertion.sv Line: 198
# ** Info: HTRANS is Valid
#    Time: 170 ns Started: 150 ns  Scope: HdlTop.ahbMasterAgentBFM.ahbMasterMonitorBFM.ahb_assert File: ../../src/hdlTop/masterAgentBFM/AhbMasterAssertion.sv Line: 47
# ** Info: Valid Write Transfer
#    Time: 170 ns Started: 150 ns  Scope: HdlTop.ahbMasterAgentBFM.ahbMasterMonitorBFM.ahb_cover File: ../../src/hdlTop/masterAgentBFM/AhbMasterCoverProperty.sv Line: 49
# ** Info: Hresp is valid
#    Time: 170 ns Started: 150 ns  Scope: HdlTop.ahbSlaveAgentBFM.ahbSlaveMonitorBFM.ahb_cover File: ../../src/hdlTop/slaveAgentBFM/AhbSlaveCoverProperty.sv Line: 57
# UVM_INFO ../../src/hdlTop/masterAgentBFM/AhbMasterDriverBFM.sv(191) @ 190: reporter [AHB_MASTER_DRIVER_BFM] Bus is now IDLE
# UVM_INFO ../../src/hdlTop/masterAgentBFM/AhbMasterDriverBFM.sv(157) @ 190: reporter [AHB_MASTER_DRIVER_BFM] Burst Transfer Completed, Bus in IDLE State
# &&&&values inside master monitor proxy '{haddr:4090530412, hselx:1, hburst:INCR4, hmastlock:0, hprot:PRIVILEGED_NONSECURE_INSTRUCTION, hsize:HALFWORD, hnonsec:x, hexcl:x, hmaster:x, htrans:SEQ, hwdata:'{0, 0, 0, 0, 0, 0, 0, 0, 0, 0, 0, 0, 0, 0, 0, 0, 7008}, hwstrb:'{0, 0, 0, 0, 0, 0, 0, 0, 0, 0, 0, 0, 0, 0, 0, 0, 3}, hwrite:WRITE, hrdata:'{0, 0, 0, 0, 0, 0, 0, 0, 0, 0, 0, 0, 0, 0, 0, 0, x}, hreadyout:x, hresp:OKAY, hexokay:x, hready:1, noOfWaitStates:0, busyControl:0}&&&
# UVM_INFO ../../src/hvlTop/masterAgent/AhbMasterMonitorProxy.sv(58) @ 190: uvm_test_top.ahbEnvironment.ahbMasterAgent[0].ahbMasterMonitorProxy [AhbMasterMonitorProxy] Sending packet via analysis_port: , 
#  --------------------------------------------------------------------------------------
# Name                      Type                  Size  Value                           
# --------------------------------------------------------------------------------------
# ahbMasterPacket           AhbMasterTransaction  -     @1261                           
#   haddr                   integral              32    'hf3d08a6c                      
#   hselx                   integral              1     'b1                             
#   hburst                  string                5     INCR4                           
#   hmastlock               integral              1     'h0                             
#   hprot                   string                32    PRIVILEGED_NONSECURE_INSTRUCTION
#   hsize                   string                8     HALFWORD                        
#   hnonsec                 integral              1     'h0                             
#   hexcl                   integral              1     'h0                             
#   hmaster                 integral              1     'd0                             
#   htrans                  string                3     SEQ                             
#   hwrite                  string                5     WRITE                           
#   hreadyout               integral              1     'h0                             
#   hresp                   string                4     OKAY                            
#   hexokay                 integral              1     'h0                             
#   hready                  integral              1     'h1                             
#   noOfwaitStatesDetected  integral              32    'h0                             
#   hwdata[0]               integral              32    'h1b60                          
#   hwstrb[0]               integral              4     'b11                            
# --------------------------------------------------------------------------------------
# 
# UVM_INFO ../../src/hvlTop/masterAgent/AhbMasterCoverage.sv(180) @ 190: uvm_test_top.ahbEnvironment.ahbMasterAgent[0].ahbMasterCoverage [AhbMasterCoverage] Before calling SAMPLE METHOD
# UVM_INFO ../../src/hvlTop/masterAgent/AhbMasterCoverage.sv(182) @ 190: uvm_test_top.ahbEnvironment.ahbMasterAgent[0].ahbMasterCoverage [AhbMasterCoverage] After calling SAMPLE METHOD
# UVM_INFO ../../src/hdlTop/slaveAgentBFM/AhbSlaveDriverBFM.sv(121) @ 190: reporter [AHB_SLAVE_DRIVER_BFM] Busy = 0
# &&&&values inside monitor proxy '{haddr:4090530412, hselx:1, hburst:INCR4, hmastlock:x, hprot:PRIVILEGED_NONSECURE_INSTRUCTION, hsize:HALFWORD, hnonsec:0, hexcl:x, hmaster:x, htrans:SEQ, hwdata:'{0, 0, 0, 0, 0, 0, 0, 0, 0, 0, 0, 0, 0, 0, 0, 0, 7008}, hwstrb:'{0, 0, 0, 0, 0, 0, 0, 0, 0, 0, 0, 0, 0, 0, 0, 0, 3}, hwrite:WRITE, hrdata:'{0, 0, 0, 0, 0, 0, 0, 0, 0, 0, 0, 0, 0, 0, 0, 0, x}, hreadyout:1, hresp:OKAY, hexokay:x, hready:x, noOfWaitStates:0, busyControl:0}&&&
# UVM_INFO ../../src/hvlTop/slaveAgent/AhbSlaveSequenceItemConverter.sv(149) @ 190: reporter [ahbSlaveSequeceItemconverterClass] After randomizing noofwaitstate = 00000000000000000000000000000000
# UVM_INFO ../../src/hvlTop/slaveAgent/AhbSlaveSequenceItemConverter.sv(177) @ 190: reporter [ahbSlaveSequeceItemconverterClass] -------------------------------------------------------------
# UVM_INFO ../../src/hvlTop/slaveAgent/AhbSlaveMonitorProxy.sv(57) @ 190: uvm_test_top.ahbEnvironment.ahbSlaveAgent[0].ahbSlaveMonitorProxy [AhbSlaveMonitorProxy] Sending packet via analysis_port: , 
#  -------------------------------------------------------------------------------
# Name                Type                 Size  Value                           
# -------------------------------------------------------------------------------
# slave Packet        AhbSlaveTransaction  -     @1265                           
#   haddr             integral             32    'hf3d08a6c                      
#   hselx             integral             1     'b1                             
#   hburst            string               5     INCR4                           
#   hmastlock         integral             1     'h0                             
#   hprot             string               32    PRIVILEGED_NONSECURE_INSTRUCTION
#   hsize             string               8     HALFWORD                        
#   hnonsec           integral             1     'h0                             
#   hexcl             integral             1     'h0                             
#   hmaster           integral             1     'd0                             
#   htrans            string               3     SEQ                             
#   hwrite            string               5     WRITE                           
#   hreadyout         integral             1     'h1                             
#   hresp             string               4     OKAY                            
#   hexokay           integral             1     'h0                             
#   hready            integral             1     'h0                             
#   choosePacketData  integral             1     'd0                             
#   hwdata[0]         integral             32    'h1b60                          
#   hwstrb[0]         integral             4     'b11                            
# -------------------------------------------------------------------------------
# 
# UVM_INFO ../../src/hvlTop/slaveAgent/AhbSlaveCoverage.sv(61) @ 190: uvm_test_top.ahbEnvironment.ahbSlaveAgent[0].ahbSlaveCoverage [AhbSlaveCoverage] AHB SLAVE COVERAGE
# UVM_INFO ../../src/hvlTop/environment/AhbScoreboard.sv(78) @ 190: uvm_test_top.ahbEnvironment.ahbScoreboard [AhbScoreboard] after calling master's analysis fifo get method
# UVM_INFO ../../src/hvlTop/environment/AhbScoreboard.sv(88) @ 190: uvm_test_top.ahbEnvironment.ahbScoreboard [AhbScoreboard] after calling slave's analysis fifo get method
# UVM_INFO ../../src/hvlTop/environment/AhbScoreboard.sv(94) @ 190: uvm_test_top.ahbEnvironment.ahbScoreboard [AhbScoreboard] --
# -----------------------------------------------SCOREBOARD COMPARISIONS--------------------------------------------------
# UVM_INFO ../../src/hvlTop/environment/AhbScoreboard.sv(97) @ 190: uvm_test_top.ahbEnvironment.ahbScoreboard [AhbScoreboard] ahb HWDATA from master and slave is equal
# UVM_INFO ../../src/hvlTop/environment/AhbScoreboard.sv(99) @ 190: uvm_test_top.ahbEnvironment.ahbScoreboard [SB  HWDAT MATCHED] Master HWDATA = 7008 and Slave HWDATA = 7008
# UVM_INFO ../../src/hvlTop/environment/AhbScoreboard.sv(112) @ 190: uvm_test_top.ahbEnvironment.ahbScoreboard [AhbScoreboard] ahb HADDR from master and slave is equal
# UVM_INFO ../../src/hvlTop/environment/AhbScoreboard.sv(114) @ 190: uvm_test_top.ahbEnvironment.ahbScoreboard [SB HADDR MATCH] Master HADDR = 'hf3d08a6c and Slave HADDR = 'hf3d08a6c
# UVM_INFO ../../src/hvlTop/environment/AhbScoreboard.sv(126) @ 190: uvm_test_top.ahbEnvironment.ahbScoreboard [AhbScoreboard] ahb HWRITE from master and slave is equal
# UVM_INFO ../../src/hvlTop/environment/AhbScoreboard.sv(128) @ 190: uvm_test_top.ahbEnvironment.ahbScoreboard [SB HWRITE MATCH] Master HWRITE = 'h1 and Slave hwrite = 'h1
# UVM_INFO ../../src/hvlTop/environment/AhbScoreboard.sv(166) @ 190: uvm_test_top.ahbEnvironment.ahbScoreboard [AhbScoreboard] --
# -----------------------------------------------END OF SCOREBOARD COMPARISIONS---------------------------------------
# UVM_INFO ../../src/hvlTop/tb/virtualSequences//AhbVirtual16bitIncr4WriteSequence.sv(32) @ 190: uvm_test_top.ahbEnvironment.ahbVirtualSequencer@@ahbVirtual16bitIncr4WriteSequence [virtual sequence] out of virtual sequence
# ** Info: Valid burst type!
#    Time: 190 ns Started: 190 ns  Scope: HdlTop.ahbMasterAgentBFM.ahbMasterMonitorBFM.ahb_assert File: ../../src/hdlTop/masterAgentBFM/AhbMasterAssertion.sv Line: 189
# ** Info: HRESP is OKAY for valid transactions!
#    Time: 190 ns Started: 170 ns  Scope: HdlTop.ahbSlaveAgentBFM.ahbSlaveMonitorBFM.ahb_assert File: ../../src/hdlTop/slaveAgentBFM/AhbSlaveAssertion.sv Line: 50
# ** Info: HWDATA is Valid When HWRITE IS HIGH
#    Time: 190 ns Started: 170 ns  Scope: HdlTop.ahbMasterAgentBFM.ahbMasterMonitorBFM.ahb_assert File: ../../src/hdlTop/masterAgentBFM/AhbMasterAssertion.sv Line: 38
# ** Info: Address Aligned with size
#    Time: 190 ns Started: 190 ns  Scope: HdlTop.ahbMasterAgentBFM.ahbMasterMonitorBFM.ahb_cover File: ../../src/hdlTop/masterAgentBFM/AhbMasterCoverProperty.sv Line: 58
# ** Info: HREADYOUT is high during valid transactions!
#    Time: 190 ns Started: 170 ns  Scope: HdlTop.ahbSlaveAgentBFM.ahbSlaveMonitorBFM.ahb_assert File: ../../src/hdlTop/slaveAgentBFM/AhbSlaveAssertion.sv Line: 31
# ** Info: HSIZE matches the data width supported by the slave!
#    Time: 190 ns Started: 190 ns  Scope: HdlTop.ahbMasterAgentBFM.ahbMasterMonitorBFM.ahb_assert File: ../../src/hdlTop/masterAgentBFM/AhbMasterAssertion.sv Line: 180
# ** Info: HADDR is aligned based on HSIZE
#    Time: 190 ns Started: 190 ns  Scope: HdlTop.ahbMasterAgentBFM.ahbMasterMonitorBFM.ahb_assert File: ../../src/hdlTop/masterAgentBFM/AhbMasterAssertion.sv Line: 57
# ** Info: Hwstrb valid
#    Time: 190 ns Started: 190 ns  Scope: HdlTop.ahbMasterAgentBFM.ahbMasterMonitorBFM.ahb_assert File: ../../src/hdlTop/masterAgentBFM/AhbMasterAssertion.sv Line: 198
# ** Info: HTRANS is Valid
#    Time: 190 ns Started: 170 ns  Scope: HdlTop.ahbMasterAgentBFM.ahbMasterMonitorBFM.ahb_assert File: ../../src/hdlTop/masterAgentBFM/AhbMasterAssertion.sv Line: 47
# ** Info: Valid Write Transfer
#    Time: 190 ns Started: 170 ns  Scope: HdlTop.ahbMasterAgentBFM.ahbMasterMonitorBFM.ahb_cover File: ../../src/hdlTop/masterAgentBFM/AhbMasterCoverProperty.sv Line: 49
# ** Info: Hresp is valid
#    Time: 190 ns Started: 170 ns  Scope: HdlTop.ahbSlaveAgentBFM.ahbSlaveMonitorBFM.ahb_cover File: ../../src/hdlTop/slaveAgentBFM/AhbSlaveCoverProperty.sv Line: 57
# &&&&values inside master monitor proxy '{haddr:0, hselx:1, hburst:SINGLE, hmastlock:0, hprot:PRIVILEGED_NONSECURE_INSTRUCTION, hsize:HALFWORD, hnonsec:x, hexcl:x, hmaster:x, htrans:IDLE, hwdata:'{0, 0, 0, 0, 0, 0, 0, 0, 0, 0, 0, 0, 0, 0, 0, 0, 7008}, hwstrb:'{0, 0, 0, 0, 0, 0, 0, 0, 0, 0, 0, 0, 0, 0, 0, 0, 3}, hwrite:READ, hrdata:'{0, 0, 0, 0, 0, 0, 0, 0, 0, 0, 0, 0, 0, 0, 0, 0, x}, hreadyout:x, hresp:OKAY, hexokay:x, hready:1, noOfWaitStates:0, busyControl:0}&&&
# UVM_INFO ../../src/hvlTop/masterAgent/AhbMasterMonitorProxy.sv(58) @ 210: uvm_test_top.ahbEnvironment.ahbMasterAgent[0].ahbMasterMonitorProxy [AhbMasterMonitorProxy] Sending packet via analysis_port: , 
#  --------------------------------------------------------------------------------------
# Name                      Type                  Size  Value                           
# --------------------------------------------------------------------------------------
# ahbMasterPacket           AhbMasterTransaction  -     @1271                           
#   haddr                   integral              32    'h0                             
#   hselx                   integral              1     'b1                             
#   hburst                  string                6     SINGLE                          
#   hmastlock               integral              1     'h0                             
#   hprot                   string                32    PRIVILEGED_NONSECURE_INSTRUCTION
#   hsize                   string                8     HALFWORD                        
